# vsim -c -assertdebug work.tb_opt "+STRING=1" -sv_seed 400 -l ../sim//./log//DIRECTED_TESTCASE_400/DIRECTED_TESTCASE_400.log -do "add wave -r /*; run -all" 
# Start time: 16:01:53 on Apr 29,2025
# //  Questa Sim
# //  Version 2021.2_1 linux May 15 2021
# //
# //  Copyright 1991-2021 Mentor Graphics Corporation
# //  All Rights Reserved.
# //
# //  QuestaSim and its associated documentation contain trade
# //  secrets and commercial or financial information that are the property of
# //  Mentor Graphics Corporation and are privileged, confidential,
# //  and exempt from disclosure under the Freedom of Information Act,
# //  5 U.S.C. Section 552. Furthermore, this information
# //  is prohibited from disclosure under the Trade Secrets Act,
# //  18 U.S.C. Section 1905.
# //
# Loading sv_std.std
# Loading work.ahb5_interface(fast)
# Loading work.ahb5_pkg(fast)
# Loading work.ahb5_package_sv_unit(fast)
# Loading work.ahb5_top(fast)
# Loading work.ahb5_interface(fast__2)
# Loading work.ahb5_test(fast)
# ** Warning: (vsim-8441) Clocking block output intf.cb_master.Hwdata is not legal in this
# or another expression.
#    Time: 0 ns  Iteration: 0  Region: /ahb5_pkg File: ../sv/ahb5_driver.sv Line: 54
# ** Warning: (vsim-8637) A modport ('ahb5_driver') should not be used in a hierarchical path.
#    Time: 0 ns  Iteration: 0  Region: /ahb5_pkg File: ../sv/ahb5_environment.sv Line: 36
# ** Warning: (vsim-8637) A modport ('ahb5_monitor') should not be used in a hierarchical path.
#    Time: 0 ns  Iteration: 0  Region: /ahb5_pkg File: ../sv/ahb5_environment.sv Line: 37
# add wave -r /*
#  run -all
# DIRECTED_TESTCASE This testcase is selected
# ------------------------------------------------------
# Display Function called from Directed Write case in Generator class
# Display the bits of Hwdata = 64 and size of Hwdata = 64
# Time = 0 | Hwdata = 0x8f1cca4690041618 | Haddr =  0x1ed7728e | Hrdata = 0xx | Htrans = 0x1 | Hwrite = 0x1 | Hsize = 0x1 | Hburst = 0x2 | Hresp = 0xx | Hsel = 0x1 | Hready = 0xx
# Time = 0 | Haddr_mem = '{517436046:517436046 }
# -------------------------------------------------------
# Time = 0 Hello
# ------------------------------------------------------
# Display Function called from driver class
# Display the bits of Hwdata = 64 and size of Hwdata = 64
# Time = 5 | Hwdata = 0x8f1cca4690041618 | Haddr =  0x1ed7728e | Hrdata = 0xx | Htrans = 0x1 | Hwrite = 0x1 | Hsize = 0x1 | Hburst = 0x2 | Hresp = 0xx | Hsel = 0x1 | Hready = 0xx
# Time = 5 | Haddr_mem = '{517436046:517436046 }
# -------------------------------------------------------
# ------------------------------------------------------
# Display Function called from Directed Write case in Generator class
# Display the bits of Hwdata = 64 and size of Hwdata = 64
# Time = 9 | Hwdata = 0x9fe47c2cbb012e33 | Haddr =  0xbf079d3c | Hrdata = 0xx | Htrans = 0x0 | Hwrite = 0x1 | Hsize = 0x1 | Hburst = 0x3 | Hresp = 0xx | Hsel = 0x0 | Hready = 0xx
# Time = 9 | Haddr_mem = '{517436046:517436046, 3204947260:3204947260 }
# -------------------------------------------------------
# Time = 9 Hello
# ---------------------------------------------------------------------------------
# WRITE OPERATION INSIDE SLAVE DUMMY DRIVER TIme = 15 | memory = x | memory without address = '{517436046:x } | At slave dummy Haddr = 1ed7728e | At slave dummy decimal Haddr = 517436046
# ---------------------------------------------------------------------------------
# 222222222222222222222222222222222Time = 15 | intf.cb_master.Hwdata = 9fe47c2cbb012e33
# ------------------------------------------------------
# Display Function called from driver class
# Display the bits of Hwdata = 64 and size of Hwdata = 64
# Time = 15 | Hwdata = 0x9fe47c2cbb012e33 | Haddr =  0xbf079d3c | Hrdata = 0xx | Htrans = 0x0 | Hwrite = 0x1 | Hsize = 0x1 | Hburst = 0x3 | Hresp = 0xx | Hsel = 0x0 | Hready = 0xx
# Time = 15 | Haddr_mem = '{517436046:517436046, 3204947260:3204947260 }
# -------------------------------------------------------
# ------------------------------------------------------
# Display Function called from Directed Write case in Generator class
# Display the bits of Hwdata = 64 and size of Hwdata = 64
# Time = 18 | Hwdata = 0x4eec68bc4eb5d756 | Haddr =  0xaecb2b01 | Hrdata = 0xx | Htrans = 0x3 | Hwrite = 0x1 | Hsize = 0x4 | Hburst = 0x0 | Hresp = 0xx | Hsel = 0x2 | Hready = 0xx
# Time = 18 | Haddr_mem = '{517436046:517436046, 2932550401:2932550401, 3204947260:3204947260 }
# -------------------------------------------------------
# Time = 18 Hello
# ------------------------------------------------------
# Display Function called from Monitor class
# Display the bits of Hwdata = 64 and size of Hwdata = 64
# Time = 25 | Hwdata = 0x9fe47c2cbb012e33 | Haddr =  0xbf079d3c | Hrdata = 0xx | Htrans = 0x0 | Hwrite = 0x1 | Hsize = 0x1 | Hburst = 0x3 | Hresp = 0x0 | Hsel = 0x0 | Hready = 0x1
# Time = 25 | Haddr_mem = '{ }
# -------------------------------------------------------
# 222222222222222222222222222222222Time = 25 | intf.cb_master.Hwdata = 4eec68bc4eb5d756
# ------------------------------------------------------
# Display Function called from driver class
# Display the bits of Hwdata = 64 and size of Hwdata = 64
# Time = 25 | Hwdata = 0x4eec68bc4eb5d756 | Haddr =  0xaecb2b01 | Hrdata = 0xx | Htrans = 0x3 | Hwrite = 0x1 | Hsize = 0x4 | Hburst = 0x0 | Hresp = 0xx | Hsel = 0x2 | Hready = 0xx
# Time = 25 | Haddr_mem = '{517436046:517436046, 2932550401:2932550401, 3204947260:3204947260 }
# -------------------------------------------------------
# ------------------------------------------------------
# Display Function called from Directed Write case in Generator class
# Display the bits of Hwdata = 64 and size of Hwdata = 64
# Time = 27 | Hwdata = 0xa8a2c2541be4768a | Haddr =  0x821f7bda | Hrdata = 0xx | Htrans = 0x3 | Hwrite = 0x1 | Hsize = 0x1 | Hburst = 0x7 | Hresp = 0xx | Hsel = 0x0 | Hready = 0xx
# Time = 27 | Haddr_mem = '{517436046:517436046, 2183101402:2183101402, 2932550401:2932550401, 3204947260:3204947260 }
# -------------------------------------------------------
# Time = 27 Hello
# ------------------------------------------------------
# Display Function called from Monitor class
# Display the bits of Hwdata = 64 and size of Hwdata = 64
# Time = 35 | Hwdata = 0x4eec68bc4eb5d756 | Haddr =  0xaecb2b01 | Hrdata = 0xx | Htrans = 0x3 | Hwrite = 0x1 | Hsize = 0x4 | Hburst = 0x0 | Hresp = 0x0 | Hsel = 0x0 | Hready = 0x1
# Time = 35 | Haddr_mem = '{ }
# -------------------------------------------------------
# ---------------------------------------------------------------------------------
# WRITE OPERATION INSIDE SLAVE DUMMY DRIVER TIme = 35 | memory = 4eec68bc4eb5d756 | memory without address = '{517436046:x, 2932550401:5687035587445774166 } | At slave dummy Haddr = aecb2b01 | At slave dummy decimal Haddr = 2932550401
# ---------------------------------------------------------------------------------
# 222222222222222222222222222222222Time = 35 | intf.cb_master.Hwdata = a8a2c2541be4768a
# ------------------------------------------------------
# Display Function called from driver class
# Display the bits of Hwdata = 64 and size of Hwdata = 64
# Time = 35 | Hwdata = 0xa8a2c2541be4768a | Haddr =  0x821f7bda | Hrdata = 0xx | Htrans = 0x3 | Hwrite = 0x1 | Hsize = 0x1 | Hburst = 0x7 | Hresp = 0xx | Hsel = 0x0 | Hready = 0xx
# Time = 35 | Haddr_mem = '{517436046:517436046, 2183101402:2183101402, 2932550401:2932550401, 3204947260:3204947260 }
# -------------------------------------------------------
# ------------------------------------------------------
# Display Function called from Directed Write case in Generator class
# Display the bits of Hwdata = 64 and size of Hwdata = 64
# Time = 36 | Hwdata = 0x56c905d39f5b83f3 | Haddr =  0x5a5cf617 | Hrdata = 0xx | Htrans = 0x1 | Hwrite = 0x1 | Hsize = 0x2 | Hburst = 0x5 | Hresp = 0xx | Hsel = 0x1 | Hready = 0xx
# Time = 36 | Haddr_mem = '{517436046:517436046, 1516041751:1516041751, 2183101402:2183101402, 2932550401:2932550401, 3204947260:3204947260 }
# -------------------------------------------------------
# Time = 36 Hello
# ------------------------------------------------------
# Display Function called from Monitor class
# Display the bits of Hwdata = 64 and size of Hwdata = 64
# Time = 45 | Hwdata = 0xa8a2c2541be4768a | Haddr =  0x821f7bda | Hrdata = 0xx | Htrans = 0x3 | Hwrite = 0x1 | Hsize = 0x1 | Hburst = 0x7 | Hresp = 0x0 | Hsel = 0x0 | Hready = 0x1
# Time = 45 | Haddr_mem = '{ }
# -------------------------------------------------------
# 222222222222222222222222222222222Time = 45 | intf.cb_master.Hwdata = 56c905d39f5b83f3
# ------------------------------------------------------
# Display Function called from driver class
# Display the bits of Hwdata = 64 and size of Hwdata = 64
# Time = 45 | Hwdata = 0x56c905d39f5b83f3 | Haddr =  0x5a5cf617 | Hrdata = 0xx | Htrans = 0x1 | Hwrite = 0x1 | Hsize = 0x2 | Hburst = 0x5 | Hresp = 0xx | Hsel = 0x1 | Hready = 0xx
# Time = 45 | Haddr_mem = '{517436046:517436046, 1516041751:1516041751, 2183101402:2183101402, 2932550401:2932550401, 3204947260:3204947260 }
# -------------------------------------------------------
# ------------------------------------------------------
# Display Function called from Directed Read case in Generator class
# Display the bits of Hwdata = 64 and size of Hwdata = 64
# Time = 45 | Hwdata = 0x3c50ff14deb687f2 | Haddr =  0x1ed7728e | Hrdata = 0xx | Htrans = 0x0 | Hwrite = 0x0 | Hsize = 0x6 | Hburst = 0x5 | Hresp = 0xx | Hsel = 0x2 | Hready = 0xx
# Time = 45 | Haddr_mem = '{1516041751:1516041751, 2183101402:2183101402, 2932550401:2932550401, 3204947260:3204947260 }
# -------------------------------------------------------
# Time = 45 Hello
# ------------------------------------------------------
# Display Function called from driver class
# Display the bits of Hwdata = 64 and size of Hwdata = 64
# Time = 45 | Hwdata = 0x3c50ff14deb687f2 | Haddr =  0x1ed7728e | Hrdata = 0xx | Htrans = 0x0 | Hwrite = 0x0 | Hsize = 0x6 | Hburst = 0x5 | Hresp = 0xx | Hsel = 0x2 | Hready = 0xx
# Time = 45 | Haddr_mem = '{1516041751:1516041751, 2183101402:2183101402, 2932550401:2932550401, 3204947260:3204947260 }
# -------------------------------------------------------
# ------------------------------------------------------
# Display Function called from Directed Read case in Generator class
# Display the bits of Hwdata = 64 and size of Hwdata = 64
# Time = 54 | Hwdata = 0xd09b950c118b9130 | Haddr =  0xbf079d3c | Hrdata = 0xx | Htrans = 0x2 | Hwrite = 0x0 | Hsize = 0x2 | Hburst = 0x6 | Hresp = 0xx | Hsel = 0x0 | Hready = 0xx
# Time = 54 | Haddr_mem = '{1516041751:1516041751, 2183101402:2183101402, 2932550401:2932550401 }
# -------------------------------------------------------
# ------------------------------------------------------
# Display Function called from Monitor class
# Display the bits of Hwdata = 64 and size of Hwdata = 64
# Time = 55 | Hwdata = 0xx | Haddr =  0x1ed7728e | Hrdata = 0xx | Htrans = 0x0 | Hwrite = 0x0 | Hsize = 0x6 | Hburst = 0x5 | Hresp = 0x0 | Hsel = 0x0 | Hready = 0x1
# Time = 55 | Haddr_mem = '{ }
# -------------------------------------------------------
# ---------------------------------------------------------------------------------
# READ OPERATION INSIDE SLAVE DUMMY DRIVER TIme = 55 | memory = x | memory without address = '{517436046:x, 2932550401:5687035587445774166 } | At slave dummy Haddr = 1ed7728e | At slave dummy decimal Haddr = 517436046
# ---------------------------------------------------------------------------------
# Time = 55 Hello
# ------------------------------------------------------
# Display Function called from driver class
# Display the bits of Hwdata = 64 and size of Hwdata = 64
# Time = 55 | Hwdata = 0xd09b950c118b9130 | Haddr =  0xbf079d3c | Hrdata = 0xx | Htrans = 0x2 | Hwrite = 0x0 | Hsize = 0x2 | Hburst = 0x6 | Hresp = 0xx | Hsel = 0x0 | Hready = 0xx
# Time = 55 | Haddr_mem = '{1516041751:1516041751, 2183101402:2183101402, 2932550401:2932550401 }
# -------------------------------------------------------
# ------------------------------------------------------
# Display Function called from Directed Read case in Generator class
# Display the bits of Hwdata = 64 and size of Hwdata = 64
# Time = 63 | Hwdata = 0x2b00faa7e856affe | Haddr =  0x821f7bda | Hrdata = 0xx | Htrans = 0x0 | Hwrite = 0x0 | Hsize = 0x1 | Hburst = 0x3 | Hresp = 0xx | Hsel = 0x0 | Hready = 0xx
# Time = 63 | Haddr_mem = '{1516041751:1516041751, 2932550401:2932550401 }
# -------------------------------------------------------
# Time = 65 Hello
# ------------------------------------------------------
# Display Function called from driver class
# Display the bits of Hwdata = 64 and size of Hwdata = 64
# Time = 65 | Hwdata = 0x2b00faa7e856affe | Haddr =  0x821f7bda | Hrdata = 0xx | Htrans = 0x0 | Hwrite = 0x0 | Hsize = 0x1 | Hburst = 0x3 | Hresp = 0xx | Hsel = 0x0 | Hready = 0xx
# Time = 65 | Haddr_mem = '{1516041751:1516041751, 2932550401:2932550401 }
# -------------------------------------------------------
# ------------------------------------------------------
# Display Function called from Directed Read case in Generator class
# Display the bits of Hwdata = 64 and size of Hwdata = 64
# Time = 72 | Hwdata = 0x35a3c98278c31fe1 | Haddr =  0xaecb2b01 | Hrdata = 0xx | Htrans = 0x1 | Hwrite = 0x0 | Hsize = 0x3 | Hburst = 0x2 | Hresp = 0xx | Hsel = 0x1 | Hready = 0xx
# Time = 72 | Haddr_mem = '{1516041751:1516041751 }
# -------------------------------------------------------
# ** Warning: (vsim-3829) Non-existent associative array entry. Returning default value.
#    Time: 75 ns  Iteration: 1  Process: /ahb5_top/tst/#FORK#24_f6623ea File: ../sve/ahb5_slave_dummy_driver.sv Line: 33
# ---------------------------------------------------------------------------------
# ** Warning: (vsim-3829) Non-existent associative array entry. Returning default value.
#    Time: 75 ns  Iteration: 1  Process: /ahb5_top/tst/#FORK#24_f6623ea File: ../sve/ahb5_slave_dummy_driver.sv Line: 36
# READ OPERATION INSIDE SLAVE DUMMY DRIVER TIme = 75 | memory = x | memory without address = '{517436046:x, 2932550401:5687035587445774166 } | At slave dummy Haddr = 821f7bda | At slave dummy decimal Haddr = 2183101402
# ---------------------------------------------------------------------------------
# Time = 75 Hello
# ------------------------------------------------------
# Display Function called from driver class
# Display the bits of Hwdata = 64 and size of Hwdata = 64
# Time = 75 | Hwdata = 0x35a3c98278c31fe1 | Haddr =  0xaecb2b01 | Hrdata = 0xx | Htrans = 0x1 | Hwrite = 0x0 | Hsize = 0x3 | Hburst = 0x2 | Hresp = 0xx | Hsel = 0x1 | Hready = 0xx
# Time = 75 | Haddr_mem = '{1516041751:1516041751 }
# -------------------------------------------------------
# ------------------------------------------------------
# Display Function called from Directed Read case in Generator class
# Display the bits of Hwdata = 64 and size of Hwdata = 64
# Time = 81 | Hwdata = 0xfba94bbc77b90aa6 | Haddr =  0x5a5cf617 | Hrdata = 0xx | Htrans = 0x3 | Hwrite = 0x0 | Hsize = 0x2 | Hburst = 0x0 | Hresp = 0xx | Hsel = 0x1 | Hready = 0xx
# Time = 81 | Haddr_mem = '{ }
# -------------------------------------------------------
# Time = 85 Hello
# ------------------------------------------------------
# Display Function called from driver class
# Display the bits of Hwdata = 64 and size of Hwdata = 64
# Time = 85 | Hwdata = 0xfba94bbc77b90aa6 | Haddr =  0x5a5cf617 | Hrdata = 0xx | Htrans = 0x3 | Hwrite = 0x0 | Hsize = 0x2 | Hburst = 0x0 | Hresp = 0xx | Hsel = 0x1 | Hready = 0xx
# Time = 85 | Haddr_mem = '{ }
# -------------------------------------------------------
# ** Warning: (vsim-3829) Non-existent associative array entry. Returning default value.
#    Time: 95 ns  Iteration: 1  Process: /ahb5_top/tst/#FORK#24_f6623ea File: ../sve/ahb5_slave_dummy_driver.sv Line: 33
# ---------------------------------------------------------------------------------
# ** Warning: (vsim-3829) Non-existent associative array entry. Returning default value.
#    Time: 95 ns  Iteration: 1  Process: /ahb5_top/tst/#FORK#24_f6623ea File: ../sve/ahb5_slave_dummy_driver.sv Line: 36
# READ OPERATION INSIDE SLAVE DUMMY DRIVER TIme = 95 | memory = x | memory without address = '{517436046:x, 2932550401:5687035587445774166 } | At slave dummy Haddr = 5a5cf617 | At slave dummy decimal Haddr = 1516041751
# ---------------------------------------------------------------------------------
# ** Warning: (vsim-3829) Non-existent associative array entry. Returning default value.
#    Time: 115 ns  Iteration: 1  Process: /ahb5_top/tst/#FORK#24_f6623ea File: ../sve/ahb5_slave_dummy_driver.sv Line: 33
# ---------------------------------------------------------------------------------
# ** Warning: (vsim-3829) Non-existent associative array entry. Returning default value.
#    Time: 115 ns  Iteration: 1  Process: /ahb5_top/tst/#FORK#24_f6623ea File: ../sve/ahb5_slave_dummy_driver.sv Line: 36
# READ OPERATION INSIDE SLAVE DUMMY DRIVER TIme = 115 | memory = x | memory without address = '{517436046:x, 2932550401:5687035587445774166 } | At slave dummy Haddr = 5a5cf617 | At slave dummy decimal Haddr = 1516041751
# ---------------------------------------------------------------------------------
# ** Warning: (vsim-3829) Non-existent associative array entry. Returning default value.
#    Time: 135 ns  Iteration: 1  Process: /ahb5_top/tst/#FORK#24_f6623ea File: ../sve/ahb5_slave_dummy_driver.sv Line: 33
# ---------------------------------------------------------------------------------
# ** Warning: (vsim-3829) Non-existent associative array entry. Returning default value.
#    Time: 135 ns  Iteration: 1  Process: /ahb5_top/tst/#FORK#24_f6623ea File: ../sve/ahb5_slave_dummy_driver.sv Line: 36
# READ OPERATION INSIDE SLAVE DUMMY DRIVER TIme = 135 | memory = x | memory without address = '{517436046:x, 2932550401:5687035587445774166 } | At slave dummy Haddr = 5a5cf617 | At slave dummy decimal Haddr = 1516041751
# ---------------------------------------------------------------------------------
# ** Warning: (vsim-3829) Non-existent associative array entry. Returning default value.
#    Time: 155 ns  Iteration: 1  Process: /ahb5_top/tst/#FORK#24_f6623ea File: ../sve/ahb5_slave_dummy_driver.sv Line: 33
# ---------------------------------------------------------------------------------
# ** Warning: (vsim-3829) Non-existent associative array entry. Returning default value.
#    Time: 155 ns  Iteration: 1  Process: /ahb5_top/tst/#FORK#24_f6623ea File: ../sve/ahb5_slave_dummy_driver.sv Line: 36
# READ OPERATION INSIDE SLAVE DUMMY DRIVER TIme = 155 | memory = x | memory without address = '{517436046:x, 2932550401:5687035587445774166 } | At slave dummy Haddr = 5a5cf617 | At slave dummy decimal Haddr = 1516041751
# ---------------------------------------------------------------------------------
# ** Warning: (vsim-3829) Non-existent associative array entry. Returning default value.
#    Time: 175 ns  Iteration: 1  Process: /ahb5_top/tst/#FORK#24_f6623ea File: ../sve/ahb5_slave_dummy_driver.sv Line: 33
# ---------------------------------------------------------------------------------
# ** Warning: (vsim-3829) Non-existent associative array entry. Returning default value.
#    Time: 175 ns  Iteration: 1  Process: /ahb5_top/tst/#FORK#24_f6623ea File: ../sve/ahb5_slave_dummy_driver.sv Line: 36
# READ OPERATION INSIDE SLAVE DUMMY DRIVER TIme = 175 | memory = x | memory without address = '{517436046:x, 2932550401:5687035587445774166 } | At slave dummy Haddr = 5a5cf617 | At slave dummy decimal Haddr = 1516041751
# ---------------------------------------------------------------------------------
# ** Warning: (vsim-3829) Non-existent associative array entry. Returning default value.
#    Time: 195 ns  Iteration: 1  Process: /ahb5_top/tst/#FORK#24_f6623ea File: ../sve/ahb5_slave_dummy_driver.sv Line: 33
# ---------------------------------------------------------------------------------
# ** Warning: (vsim-3829) Non-existent associative array entry. Returning default value.
#    Time: 195 ns  Iteration: 1  Process: /ahb5_top/tst/#FORK#24_f6623ea File: ../sve/ahb5_slave_dummy_driver.sv Line: 36
# READ OPERATION INSIDE SLAVE DUMMY DRIVER TIme = 195 | memory = x | memory without address = '{517436046:x, 2932550401:5687035587445774166 } | At slave dummy Haddr = 5a5cf617 | At slave dummy decimal Haddr = 1516041751
# ---------------------------------------------------------------------------------
# ** Warning: (vsim-3829) Non-existent associative array entry. Returning default value.
#    Time: 215 ns  Iteration: 1  Process: /ahb5_top/tst/#FORK#24_f6623ea File: ../sve/ahb5_slave_dummy_driver.sv Line: 33
# ---------------------------------------------------------------------------------
# ** Warning: (vsim-3829) Non-existent associative array entry. Returning default value.
#    Time: 215 ns  Iteration: 1  Process: /ahb5_top/tst/#FORK#24_f6623ea File: ../sve/ahb5_slave_dummy_driver.sv Line: 36
# READ OPERATION INSIDE SLAVE DUMMY DRIVER TIme = 215 | memory = x | memory without address = '{517436046:x, 2932550401:5687035587445774166 } | At slave dummy Haddr = 5a5cf617 | At slave dummy decimal Haddr = 1516041751
# ---------------------------------------------------------------------------------
# ** Warning: (vsim-3829) Non-existent associative array entry. Returning default value.
#    Time: 235 ns  Iteration: 1  Process: /ahb5_top/tst/#FORK#24_f6623ea File: ../sve/ahb5_slave_dummy_driver.sv Line: 33
# ---------------------------------------------------------------------------------
# ** Warning: (vsim-3829) Non-existent associative array entry. Returning default value.
#    Time: 235 ns  Iteration: 1  Process: /ahb5_top/tst/#FORK#24_f6623ea File: ../sve/ahb5_slave_dummy_driver.sv Line: 36
# READ OPERATION INSIDE SLAVE DUMMY DRIVER TIme = 235 | memory = x | memory without address = '{517436046:x, 2932550401:5687035587445774166 } | At slave dummy Haddr = 5a5cf617 | At slave dummy decimal Haddr = 1516041751
# ---------------------------------------------------------------------------------
# ** Warning: (vsim-3829) Non-existent associative array entry. Returning default value.
#    Time: 255 ns  Iteration: 1  Process: /ahb5_top/tst/#FORK#24_f6623ea File: ../sve/ahb5_slave_dummy_driver.sv Line: 33
# ---------------------------------------------------------------------------------
# ** Warning: (vsim-3829) Non-existent associative array entry. Returning default value.
#    Time: 255 ns  Iteration: 1  Process: /ahb5_top/tst/#FORK#24_f6623ea File: ../sve/ahb5_slave_dummy_driver.sv Line: 36
# READ OPERATION INSIDE SLAVE DUMMY DRIVER TIme = 255 | memory = x | memory without address = '{517436046:x, 2932550401:5687035587445774166 } | At slave dummy Haddr = 5a5cf617 | At slave dummy decimal Haddr = 1516041751
# ---------------------------------------------------------------------------------
# ** Warning: (vsim-3829) Non-existent associative array entry. Returning default value.
#    Time: 275 ns  Iteration: 1  Process: /ahb5_top/tst/#FORK#24_f6623ea File: ../sve/ahb5_slave_dummy_driver.sv Line: 33
# ---------------------------------------------------------------------------------
# ** Warning: (vsim-3829) Non-existent associative array entry. Returning default value.
#    Time: 275 ns  Iteration: 1  Process: /ahb5_top/tst/#FORK#24_f6623ea File: ../sve/ahb5_slave_dummy_driver.sv Line: 36
# READ OPERATION INSIDE SLAVE DUMMY DRIVER TIme = 275 | memory = x | memory without address = '{517436046:x, 2932550401:5687035587445774166 } | At slave dummy Haddr = 5a5cf617 | At slave dummy decimal Haddr = 1516041751
# ---------------------------------------------------------------------------------
# ** Warning: (vsim-3829) Non-existent associative array entry. Returning default value.
#    Time: 295 ns  Iteration: 1  Process: /ahb5_top/tst/#FORK#24_f6623ea File: ../sve/ahb5_slave_dummy_driver.sv Line: 33
# ---------------------------------------------------------------------------------
# ** Warning: (vsim-3829) Non-existent associative array entry. Returning default value.
#    Time: 295 ns  Iteration: 1  Process: /ahb5_top/tst/#FORK#24_f6623ea File: ../sve/ahb5_slave_dummy_driver.sv Line: 36
# READ OPERATION INSIDE SLAVE DUMMY DRIVER TIme = 295 | memory = x | memory without address = '{517436046:x, 2932550401:5687035587445774166 } | At slave dummy Haddr = 5a5cf617 | At slave dummy decimal Haddr = 1516041751
# ---------------------------------------------------------------------------------
# ** Warning: (vsim-3829) Non-existent associative array entry. Returning default value.
#    Time: 315 ns  Iteration: 1  Process: /ahb5_top/tst/#FORK#24_f6623ea File: ../sve/ahb5_slave_dummy_driver.sv Line: 33
# ---------------------------------------------------------------------------------
# ** Warning: (vsim-3829) Non-existent associative array entry. Returning default value.
#    Time: 315 ns  Iteration: 1  Process: /ahb5_top/tst/#FORK#24_f6623ea File: ../sve/ahb5_slave_dummy_driver.sv Line: 36
# READ OPERATION INSIDE SLAVE DUMMY DRIVER TIme = 315 | memory = x | memory without address = '{517436046:x, 2932550401:5687035587445774166 } | At slave dummy Haddr = 5a5cf617 | At slave dummy decimal Haddr = 1516041751
# ---------------------------------------------------------------------------------
# ** Warning: (vsim-3829) Non-existent associative array entry. Returning default value.
#    Time: 335 ns  Iteration: 1  Process: /ahb5_top/tst/#FORK#24_f6623ea File: ../sve/ahb5_slave_dummy_driver.sv Line: 33
# ---------------------------------------------------------------------------------
# ** Warning: (vsim-3829) Non-existent associative array entry. Returning default value.
#    Time: 335 ns  Iteration: 1  Process: /ahb5_top/tst/#FORK#24_f6623ea File: ../sve/ahb5_slave_dummy_driver.sv Line: 36
# READ OPERATION INSIDE SLAVE DUMMY DRIVER TIme = 335 | memory = x | memory without address = '{517436046:x, 2932550401:5687035587445774166 } | At slave dummy Haddr = 5a5cf617 | At slave dummy decimal Haddr = 1516041751
# ---------------------------------------------------------------------------------
# ** Warning: (vsim-3829) Non-existent associative array entry. Returning default value.
#    Time: 355 ns  Iteration: 1  Process: /ahb5_top/tst/#FORK#24_f6623ea File: ../sve/ahb5_slave_dummy_driver.sv Line: 33
# ---------------------------------------------------------------------------------
# ** Warning: (vsim-3829) Non-existent associative array entry. Returning default value.
#    Time: 355 ns  Iteration: 1  Process: /ahb5_top/tst/#FORK#24_f6623ea File: ../sve/ahb5_slave_dummy_driver.sv Line: 36
# READ OPERATION INSIDE SLAVE DUMMY DRIVER TIme = 355 | memory = x | memory without address = '{517436046:x, 2932550401:5687035587445774166 } | At slave dummy Haddr = 5a5cf617 | At slave dummy decimal Haddr = 1516041751
# ---------------------------------------------------------------------------------
# ** Warning: (vsim-3829) Non-existent associative array entry. Returning default value.
#    Time: 375 ns  Iteration: 1  Process: /ahb5_top/tst/#FORK#24_f6623ea File: ../sve/ahb5_slave_dummy_driver.sv Line: 33
# ---------------------------------------------------------------------------------
# ** Warning: (vsim-3829) Non-existent associative array entry. Returning default value.
#    Time: 375 ns  Iteration: 1  Process: /ahb5_top/tst/#FORK#24_f6623ea File: ../sve/ahb5_slave_dummy_driver.sv Line: 36
# READ OPERATION INSIDE SLAVE DUMMY DRIVER TIme = 375 | memory = x | memory without address = '{517436046:x, 2932550401:5687035587445774166 } | At slave dummy Haddr = 5a5cf617 | At slave dummy decimal Haddr = 1516041751
# ---------------------------------------------------------------------------------
# ** Warning: (vsim-3829) Non-existent associative array entry. Returning default value.
#    Time: 395 ns  Iteration: 1  Process: /ahb5_top/tst/#FORK#24_f6623ea File: ../sve/ahb5_slave_dummy_driver.sv Line: 33
# ---------------------------------------------------------------------------------
# ** Warning: (vsim-3829) Non-existent associative array entry. Returning default value.
#    Time: 395 ns  Iteration: 1  Process: /ahb5_top/tst/#FORK#24_f6623ea File: ../sve/ahb5_slave_dummy_driver.sv Line: 36
# READ OPERATION INSIDE SLAVE DUMMY DRIVER TIme = 395 | memory = x | memory without address = '{517436046:x, 2932550401:5687035587445774166 } | At slave dummy Haddr = 5a5cf617 | At slave dummy decimal Haddr = 1516041751
# ---------------------------------------------------------------------------------
# ** Warning: (vsim-3829) Non-existent associative array entry. Returning default value.
#    Time: 415 ns  Iteration: 1  Process: /ahb5_top/tst/#FORK#24_f6623ea File: ../sve/ahb5_slave_dummy_driver.sv Line: 33
# ---------------------------------------------------------------------------------
# ** Warning: (vsim-3829) Non-existent associative array entry. Returning default value.
#    Time: 415 ns  Iteration: 1  Process: /ahb5_top/tst/#FORK#24_f6623ea File: ../sve/ahb5_slave_dummy_driver.sv Line: 36
# READ OPERATION INSIDE SLAVE DUMMY DRIVER TIme = 415 | memory = x | memory without address = '{517436046:x, 2932550401:5687035587445774166 } | At slave dummy Haddr = 5a5cf617 | At slave dummy decimal Haddr = 1516041751
# ---------------------------------------------------------------------------------
# ** Warning: (vsim-3829) Non-existent associative array entry. Returning default value.
#    Time: 435 ns  Iteration: 1  Process: /ahb5_top/tst/#FORK#24_f6623ea File: ../sve/ahb5_slave_dummy_driver.sv Line: 33
# ---------------------------------------------------------------------------------
# ** Warning: (vsim-3829) Non-existent associative array entry. Returning default value.
#    Time: 435 ns  Iteration: 1  Process: /ahb5_top/tst/#FORK#24_f6623ea File: ../sve/ahb5_slave_dummy_driver.sv Line: 36
# READ OPERATION INSIDE SLAVE DUMMY DRIVER TIme = 435 | memory = x | memory without address = '{517436046:x, 2932550401:5687035587445774166 } | At slave dummy Haddr = 5a5cf617 | At slave dummy decimal Haddr = 1516041751
# ---------------------------------------------------------------------------------
# ** Warning: (vsim-3829) Non-existent associative array entry. Returning default value.
#    Time: 455 ns  Iteration: 1  Process: /ahb5_top/tst/#FORK#24_f6623ea File: ../sve/ahb5_slave_dummy_driver.sv Line: 33
# ---------------------------------------------------------------------------------
# ** Warning: (vsim-3829) Non-existent associative array entry. Returning default value.
#    Time: 455 ns  Iteration: 1  Process: /ahb5_top/tst/#FORK#24_f6623ea File: ../sve/ahb5_slave_dummy_driver.sv Line: 36
# READ OPERATION INSIDE SLAVE DUMMY DRIVER TIme = 455 | memory = x | memory without address = '{517436046:x, 2932550401:5687035587445774166 } | At slave dummy Haddr = 5a5cf617 | At slave dummy decimal Haddr = 1516041751
# ---------------------------------------------------------------------------------
# ** Warning: (vsim-3829) Non-existent associative array entry. Returning default value.
#    Time: 475 ns  Iteration: 1  Process: /ahb5_top/tst/#FORK#24_f6623ea File: ../sve/ahb5_slave_dummy_driver.sv Line: 33
# ---------------------------------------------------------------------------------
# ** Warning: (vsim-3829) Non-existent associative array entry. Returning default value.
#    Time: 475 ns  Iteration: 1  Process: /ahb5_top/tst/#FORK#24_f6623ea File: ../sve/ahb5_slave_dummy_driver.sv Line: 36
# READ OPERATION INSIDE SLAVE DUMMY DRIVER TIme = 475 | memory = x | memory without address = '{517436046:x, 2932550401:5687035587445774166 } | At slave dummy Haddr = 5a5cf617 | At slave dummy decimal Haddr = 1516041751
# ---------------------------------------------------------------------------------
# ** Warning: (vsim-3829) Non-existent associative array entry. Returning default value.
#    Time: 495 ns  Iteration: 1  Process: /ahb5_top/tst/#FORK#24_f6623ea File: ../sve/ahb5_slave_dummy_driver.sv Line: 33
# ---------------------------------------------------------------------------------
# ** Warning: (vsim-3829) Non-existent associative array entry. Returning default value.
#    Time: 495 ns  Iteration: 1  Process: /ahb5_top/tst/#FORK#24_f6623ea File: ../sve/ahb5_slave_dummy_driver.sv Line: 36
# READ OPERATION INSIDE SLAVE DUMMY DRIVER TIme = 495 | memory = x | memory without address = '{517436046:x, 2932550401:5687035587445774166 } | At slave dummy Haddr = 5a5cf617 | At slave dummy decimal Haddr = 1516041751
# ---------------------------------------------------------------------------------
# ** Note: $finish    : ../tb_top/ahb5_top.sv(21)
#    Time: 500 ns  Iteration: 0  Instance: /ahb5_top
# End time: 16:01:57 on Apr 29,2025, Elapsed time: 0:00:04
# Errors: 0, Warnings: 47
