# vsim -c -assertdebug work.tb_opt "+STRING=1" -sv_seed 900 -l ../sim//./log//DIRECTED_TESTCASE_900/DIRECTED_TESTCASE_900.log -do "add wave -r /*; run -all" 
# Start time: 15:35:49 on Apr 29,2025
# //  Questa Sim
# //  Version 2021.2_1 linux May 15 2021
# //
# //  Copyright 1991-2021 Mentor Graphics Corporation
# //  All Rights Reserved.
# //
# //  QuestaSim and its associated documentation contain trade
# //  secrets and commercial or financial information that are the property of
# //  Mentor Graphics Corporation and are privileged, confidential,
# //  and exempt from disclosure under the Freedom of Information Act,
# //  5 U.S.C. Section 552. Furthermore, this information
# //  is prohibited from disclosure under the Trade Secrets Act,
# //  18 U.S.C. Section 1905.
# //
# Loading sv_std.std
# Loading work.ahb5_interface(fast)
# Loading work.ahb5_pkg(fast)
# Loading work.ahb5_package_sv_unit(fast)
# Loading work.ahb5_top(fast)
# Loading work.ahb5_interface(fast__2)
# Loading work.ahb5_test(fast)
# ** Warning: (vsim-8441) Clocking block output intf.cb_master.Hwdata is not legal in this
# or another expression.
#    Time: 0 ns  Iteration: 0  Region: /ahb5_pkg File: ../sv/ahb5_driver.sv Line: 54
# ** Warning: (vsim-8637) A modport ('ahb5_driver') should not be used in a hierarchical path.
#    Time: 0 ns  Iteration: 0  Region: /ahb5_pkg File: ../sv/ahb5_environment.sv Line: 36
# ** Warning: (vsim-8637) A modport ('ahb5_monitor') should not be used in a hierarchical path.
#    Time: 0 ns  Iteration: 0  Region: /ahb5_pkg File: ../sv/ahb5_environment.sv Line: 37
# add wave -r /*
#  run -all
# DIRECTED_TESTCASE This testcase is selected
# ------------------------------------------------------
# Display Function called from Directed Write case in Generator class
# Display the bits of Hwdata = 64 and size of Hwdata = 64
# Time = 0 | Hwdata = 0x453975b35ee04075 | Haddr =  0x6a3f1bf9 | Hrdata = 0xx | Htrans = 0x2 | Hwrite = 0x1 | Hsize = 0x1 | Hburst = 0x3 | Hresp = 0xx | Hsel = 0x1 | Hready = 0xx
# Time = 0 | Haddr_mem = '{1782520825:1782520825 }
# -------------------------------------------------------
# Time = 0 Hello
# ------------------------------------------------------
# Display Function called from driver class
# Display the bits of Hwdata = 64 and size of Hwdata = 64
# Time = 5 | Hwdata = 0x453975b35ee04075 | Haddr =  0x6a3f1bf9 | Hrdata = 0xx | Htrans = 0x2 | Hwrite = 0x1 | Hsize = 0x1 | Hburst = 0x3 | Hresp = 0xx | Hsel = 0x1 | Hready = 0xx
# Time = 5 | Haddr_mem = '{1782520825:1782520825 }
# -------------------------------------------------------
# ------------------------------------------------------
# Display Function called from Directed Write case in Generator class
# Display the bits of Hwdata = 64 and size of Hwdata = 64
# Time = 9 | Hwdata = 0x4932884c13b3b49b | Haddr =  0xfa17c01a | Hrdata = 0xx | Htrans = 0x2 | Hwrite = 0x1 | Hsize = 0x0 | Hburst = 0x5 | Hresp = 0xx | Hsel = 0x2 | Hready = 0xx
# Time = 9 | Haddr_mem = '{1782520825:1782520825, 4195860506:4195860506 }
# -------------------------------------------------------
# Time = 9 Hello
# ---------------------------------------------------------------------------------
# WRITE OPERATION INSIDE SLAVE DUMMY DRIVER TIme = 15 | memory = x | memory without address = '{1782520825:x } | At slave dummy Haddr = 6a3f1bf9 | At slave dummy decimal Haddr = 1782520825
# ---------------------------------------------------------------------------------
# 222222222222222222222222222222222Time = 15 | intf.cb_master.Hwdata = 4932884c13b3b49b
# ------------------------------------------------------
# Display Function called from driver class
# Display the bits of Hwdata = 64 and size of Hwdata = 64
# Time = 15 | Hwdata = 0x4932884c13b3b49b | Haddr =  0xfa17c01a | Hrdata = 0xx | Htrans = 0x2 | Hwrite = 0x1 | Hsize = 0x0 | Hburst = 0x5 | Hresp = 0xx | Hsel = 0x2 | Hready = 0xx
# Time = 15 | Haddr_mem = '{1782520825:1782520825, 4195860506:4195860506 }
# -------------------------------------------------------
# ------------------------------------------------------
# Display Function called from Directed Write case in Generator class
# Display the bits of Hwdata = 64 and size of Hwdata = 64
# Time = 18 | Hwdata = 0x21cb941a56de7426 | Haddr =  0x670c083c | Hrdata = 0xx | Htrans = 0x0 | Hwrite = 0x1 | Hsize = 0x1 | Hburst = 0x5 | Hresp = 0xx | Hsel = 0x0 | Hready = 0xx
# Time = 18 | Haddr_mem = '{1728841788:1728841788, 1782520825:1782520825, 4195860506:4195860506 }
# -------------------------------------------------------
# Time = 18 Hello
# ------------------------------------------------------
# Display Function called from Monitor class
# Display the bits of Hwdata = 64 and size of Hwdata = 64
# Time = 25 | Hwdata = 0x4932884c13b3b49b | Haddr =  0xfa17c01a | Hrdata = 0xx | Htrans = 0x2 | Hwrite = 0x1 | Hsize = 0x0 | Hburst = 0x5 | Hresp = 0x0 | Hsel = 0x0 | Hready = 0x1
# Time = 25 | Haddr_mem = '{ }
# -------------------------------------------------------
# 222222222222222222222222222222222Time = 25 | intf.cb_master.Hwdata = 21cb941a56de7426
# ------------------------------------------------------
# Display Function called from driver class
# Display the bits of Hwdata = 64 and size of Hwdata = 64
# Time = 25 | Hwdata = 0x21cb941a56de7426 | Haddr =  0x670c083c | Hrdata = 0xx | Htrans = 0x0 | Hwrite = 0x1 | Hsize = 0x1 | Hburst = 0x5 | Hresp = 0xx | Hsel = 0x0 | Hready = 0xx
# Time = 25 | Haddr_mem = '{1728841788:1728841788, 1782520825:1782520825, 4195860506:4195860506 }
# -------------------------------------------------------
# ------------------------------------------------------
# Display Function called from Directed Write case in Generator class
# Display the bits of Hwdata = 64 and size of Hwdata = 64
# Time = 27 | Hwdata = 0xca9dac28312df994 | Haddr =  0xaae3bf77 | Hrdata = 0xx | Htrans = 0x3 | Hwrite = 0x1 | Hsize = 0x7 | Hburst = 0x0 | Hresp = 0xx | Hsel = 0x1 | Hready = 0xx
# Time = 27 | Haddr_mem = '{1728841788:1728841788, 1782520825:1782520825, 2867052407:2867052407, 4195860506:4195860506 }
# -------------------------------------------------------
# Time = 27 Hello
# ------------------------------------------------------
# Display Function called from Monitor class
# Display the bits of Hwdata = 64 and size of Hwdata = 64
# Time = 35 | Hwdata = 0x21cb941a56de7426 | Haddr =  0x670c083c | Hrdata = 0xx | Htrans = 0x0 | Hwrite = 0x1 | Hsize = 0x1 | Hburst = 0x5 | Hresp = 0x0 | Hsel = 0x0 | Hready = 0x1
# Time = 35 | Haddr_mem = '{ }
# -------------------------------------------------------
# ---------------------------------------------------------------------------------
# WRITE OPERATION INSIDE SLAVE DUMMY DRIVER TIme = 35 | memory = 21cb941a56de7426 | memory without address = '{1728841788:2435202864371364902, 1782520825:x } | At slave dummy Haddr = 670c083c | At slave dummy decimal Haddr = 1728841788
# ---------------------------------------------------------------------------------
# 222222222222222222222222222222222Time = 35 | intf.cb_master.Hwdata = ca9dac28312df994
# ------------------------------------------------------
# Display Function called from driver class
# Display the bits of Hwdata = 64 and size of Hwdata = 64
# Time = 35 | Hwdata = 0xca9dac28312df994 | Haddr =  0xaae3bf77 | Hrdata = 0xx | Htrans = 0x3 | Hwrite = 0x1 | Hsize = 0x7 | Hburst = 0x0 | Hresp = 0xx | Hsel = 0x1 | Hready = 0xx
# Time = 35 | Haddr_mem = '{1728841788:1728841788, 1782520825:1782520825, 2867052407:2867052407, 4195860506:4195860506 }
# -------------------------------------------------------
# ------------------------------------------------------
# Display Function called from Directed Write case in Generator class
# Display the bits of Hwdata = 64 and size of Hwdata = 64
# Time = 36 | Hwdata = 0xe611219e64e73b26 | Haddr =  0xf401d47d | Hrdata = 0xx | Htrans = 0x3 | Hwrite = 0x1 | Hsize = 0x1 | Hburst = 0x5 | Hresp = 0xx | Hsel = 0x1 | Hready = 0xx
# Time = 36 | Haddr_mem = '{1728841788:1728841788, 1782520825:1782520825, 2867052407:2867052407, 4093760637:4093760637, 4195860506:4195860506 }
# -------------------------------------------------------
# Time = 36 Hello
# ------------------------------------------------------
# Display Function called from Monitor class
# Display the bits of Hwdata = 64 and size of Hwdata = 64
# Time = 45 | Hwdata = 0xca9dac28312df994 | Haddr =  0xaae3bf77 | Hrdata = 0xx | Htrans = 0x3 | Hwrite = 0x1 | Hsize = 0x7 | Hburst = 0x0 | Hresp = 0x0 | Hsel = 0x1 | Hready = 0x1
# Time = 45 | Haddr_mem = '{ }
# -------------------------------------------------------
# 222222222222222222222222222222222Time = 45 | intf.cb_master.Hwdata = e611219e64e73b26
# ------------------------------------------------------
# Display Function called from driver class
# Display the bits of Hwdata = 64 and size of Hwdata = 64
# Time = 45 | Hwdata = 0xe611219e64e73b26 | Haddr =  0xf401d47d | Hrdata = 0xx | Htrans = 0x3 | Hwrite = 0x1 | Hsize = 0x1 | Hburst = 0x5 | Hresp = 0xx | Hsel = 0x1 | Hready = 0xx
# Time = 45 | Haddr_mem = '{1728841788:1728841788, 1782520825:1782520825, 2867052407:2867052407, 4093760637:4093760637, 4195860506:4195860506 }
# -------------------------------------------------------
# ------------------------------------------------------
# Display Function called from Directed Read case in Generator class
# Display the bits of Hwdata = 64 and size of Hwdata = 64
# Time = 45 | Hwdata = 0xf34eba6c15610461 | Haddr =  0xf401d47d | Hrdata = 0xx | Htrans = 0x3 | Hwrite = 0x0 | Hsize = 0x1 | Hburst = 0x0 | Hresp = 0xx | Hsel = 0x1 | Hready = 0xx
# Time = 45 | Haddr_mem = '{1728841788:1728841788, 1782520825:1782520825, 2867052407:2867052407, 4195860506:4195860506 }
# -------------------------------------------------------
# Time = 45 Hello
# ------------------------------------------------------
# Display Function called from driver class
# Display the bits of Hwdata = 64 and size of Hwdata = 64
# Time = 45 | Hwdata = 0xf34eba6c15610461 | Haddr =  0xf401d47d | Hrdata = 0xx | Htrans = 0x3 | Hwrite = 0x0 | Hsize = 0x1 | Hburst = 0x0 | Hresp = 0xx | Hsel = 0x1 | Hready = 0xx
# Time = 45 | Haddr_mem = '{1728841788:1728841788, 1782520825:1782520825, 2867052407:2867052407, 4195860506:4195860506 }
# -------------------------------------------------------
# ------------------------------------------------------
# Display Function called from Directed Read case in Generator class
# Display the bits of Hwdata = 64 and size of Hwdata = 64
# Time = 54 | Hwdata = 0xf4e6ec9656e1a1c8 | Haddr =  0xaae3bf77 | Hrdata = 0xx | Htrans = 0x1 | Hwrite = 0x0 | Hsize = 0x7 | Hburst = 0x0 | Hresp = 0xx | Hsel = 0x1 | Hready = 0xx
# Time = 54 | Haddr_mem = '{1728841788:1728841788, 1782520825:1782520825, 4195860506:4195860506 }
# -------------------------------------------------------
# ------------------------------------------------------
# Display Function called from Monitor class
# Display the bits of Hwdata = 64 and size of Hwdata = 64
# Time = 55 | Hwdata = 0xx | Haddr =  0xf401d47d | Hrdata = 0xx | Htrans = 0x3 | Hwrite = 0x0 | Hsize = 0x1 | Hburst = 0x0 | Hresp = 0x0 | Hsel = 0x1 | Hready = 0x1
# Time = 55 | Haddr_mem = '{ }
# -------------------------------------------------------
# ** Warning: (vsim-3829) Non-existent associative array entry. Returning default value.
#    Time: 55 ns  Iteration: 1  Process: /ahb5_top/tst/#FORK#24_f6623ea File: ../sve/ahb5_slave_dummy_driver.sv Line: 33
# ---------------------------------------------------------------------------------
# ** Warning: (vsim-3829) Non-existent associative array entry. Returning default value.
#    Time: 55 ns  Iteration: 1  Process: /ahb5_top/tst/#FORK#24_f6623ea File: ../sve/ahb5_slave_dummy_driver.sv Line: 36
# READ OPERATION INSIDE SLAVE DUMMY DRIVER TIme = 55 | memory = x | memory without address = '{1728841788:2435202864371364902, 1782520825:x } | At slave dummy Haddr = f401d47d | At slave dummy decimal Haddr = 4093760637
# ---------------------------------------------------------------------------------
# Time = 55 Hello
# ------------------------------------------------------
# Display Function called from driver class
# Display the bits of Hwdata = 64 and size of Hwdata = 64
# Time = 55 | Hwdata = 0xf4e6ec9656e1a1c8 | Haddr =  0xaae3bf77 | Hrdata = 0xx | Htrans = 0x1 | Hwrite = 0x0 | Hsize = 0x7 | Hburst = 0x0 | Hresp = 0xx | Hsel = 0x1 | Hready = 0xx
# Time = 55 | Haddr_mem = '{1728841788:1728841788, 1782520825:1782520825, 4195860506:4195860506 }
# -------------------------------------------------------
# ------------------------------------------------------
# Display Function called from Directed Read case in Generator class
# Display the bits of Hwdata = 64 and size of Hwdata = 64
# Time = 63 | Hwdata = 0x26360b0796d2a564 | Haddr =  0x670c083c | Hrdata = 0xx | Htrans = 0x3 | Hwrite = 0x0 | Hsize = 0x4 | Hburst = 0x2 | Hresp = 0xx | Hsel = 0x1 | Hready = 0xx
# Time = 63 | Haddr_mem = '{1782520825:1782520825, 4195860506:4195860506 }
# -------------------------------------------------------
# Time = 65 Hello
# ------------------------------------------------------
# Display Function called from driver class
# Display the bits of Hwdata = 64 and size of Hwdata = 64
# Time = 65 | Hwdata = 0x26360b0796d2a564 | Haddr =  0x670c083c | Hrdata = 0xx | Htrans = 0x3 | Hwrite = 0x0 | Hsize = 0x4 | Hburst = 0x2 | Hresp = 0xx | Hsel = 0x1 | Hready = 0xx
# Time = 65 | Haddr_mem = '{1782520825:1782520825, 4195860506:4195860506 }
# -------------------------------------------------------
# ------------------------------------------------------
# Display Function called from Directed Read case in Generator class
# Display the bits of Hwdata = 64 and size of Hwdata = 64
# Time = 72 | Hwdata = 0x25d93293bc033ee8 | Haddr =  0x6a3f1bf9 | Hrdata = 0xx | Htrans = 0x3 | Hwrite = 0x0 | Hsize = 0x0 | Hburst = 0x1 | Hresp = 0xx | Hsel = 0x1 | Hready = 0xx
# Time = 72 | Haddr_mem = '{4195860506:4195860506 }
# -------------------------------------------------------
# ---------------------------------------------------------------------------------
# READ OPERATION INSIDE SLAVE DUMMY DRIVER TIme = 75 | memory = 21cb941a56de7426 | memory without address = '{1728841788:2435202864371364902, 1782520825:x } | At slave dummy Haddr = 670c083c | At slave dummy decimal Haddr = 1728841788
# ---------------------------------------------------------------------------------
# Time = 75 Hello
# ------------------------------------------------------
# Display Function called from driver class
# Display the bits of Hwdata = 64 and size of Hwdata = 64
# Time = 75 | Hwdata = 0x25d93293bc033ee8 | Haddr =  0x6a3f1bf9 | Hrdata = 0xx | Htrans = 0x3 | Hwrite = 0x0 | Hsize = 0x0 | Hburst = 0x1 | Hresp = 0xx | Hsel = 0x1 | Hready = 0xx
# Time = 75 | Haddr_mem = '{4195860506:4195860506 }
# -------------------------------------------------------
# ------------------------------------------------------
# Display Function called from Directed Read case in Generator class
# Display the bits of Hwdata = 64 and size of Hwdata = 64
# Time = 81 | Hwdata = 0x33335a601fc66202 | Haddr =  0xfa17c01a | Hrdata = 0xx | Htrans = 0x0 | Hwrite = 0x0 | Hsize = 0x0 | Hburst = 0x6 | Hresp = 0xx | Hsel = 0x2 | Hready = 0xx
# Time = 81 | Haddr_mem = '{ }
# -------------------------------------------------------
# ------------------------------------------------------
# Display Function called from Monitor class
# Display the bits of Hwdata = 64 and size of Hwdata = 64
# Time = 85 | Hwdata = 0xx | Haddr =  0x6a3f1bf9 | Hrdata = 0x21cb941a56de7426 | Htrans = 0x3 | Hwrite = 0x0 | Hsize = 0x0 | Hburst = 0x1 | Hresp = 0x0 | Hsel = 0x1 | Hready = 0x1
# Time = 85 | Haddr_mem = '{ }
# -------------------------------------------------------
# Time = 85 Hello
# ------------------------------------------------------
# Display Function called from driver class
# Display the bits of Hwdata = 64 and size of Hwdata = 64
# Time = 85 | Hwdata = 0x33335a601fc66202 | Haddr =  0xfa17c01a | Hrdata = 0xx | Htrans = 0x0 | Hwrite = 0x0 | Hsize = 0x0 | Hburst = 0x6 | Hresp = 0xx | Hsel = 0x2 | Hready = 0xx
# Time = 85 | Haddr_mem = '{ }
# -------------------------------------------------------
# ** Warning: (vsim-3829) Non-existent associative array entry. Returning default value.
#    Time: 95 ns  Iteration: 1  Process: /ahb5_top/tst/#FORK#24_f6623ea File: ../sve/ahb5_slave_dummy_driver.sv Line: 33
# ---------------------------------------------------------------------------------
# ** Warning: (vsim-3829) Non-existent associative array entry. Returning default value.
#    Time: 95 ns  Iteration: 1  Process: /ahb5_top/tst/#FORK#24_f6623ea File: ../sve/ahb5_slave_dummy_driver.sv Line: 36
# READ OPERATION INSIDE SLAVE DUMMY DRIVER TIme = 95 | memory = x | memory without address = '{1728841788:2435202864371364902, 1782520825:x } | At slave dummy Haddr = fa17c01a | At slave dummy decimal Haddr = 4195860506
# ---------------------------------------------------------------------------------
# ------------------------------------------------------
# Display Function called from Monitor class
# Display the bits of Hwdata = 64 and size of Hwdata = 64
# Time = 105 | Hwdata = 0xx | Haddr =  0xfa17c01a | Hrdata = 0xx | Htrans = 0x0 | Hwrite = 0x0 | Hsize = 0x0 | Hburst = 0x6 | Hresp = 0x0 | Hsel = 0x0 | Hready = 0x1
# Time = 105 | Haddr_mem = '{ }
# -------------------------------------------------------
# ** Warning: (vsim-3829) Non-existent associative array entry. Returning default value.
#    Time: 115 ns  Iteration: 1  Process: /ahb5_top/tst/#FORK#24_f6623ea File: ../sve/ahb5_slave_dummy_driver.sv Line: 33
# ---------------------------------------------------------------------------------
# ** Warning: (vsim-3829) Non-existent associative array entry. Returning default value.
#    Time: 115 ns  Iteration: 1  Process: /ahb5_top/tst/#FORK#24_f6623ea File: ../sve/ahb5_slave_dummy_driver.sv Line: 36
# READ OPERATION INSIDE SLAVE DUMMY DRIVER TIme = 115 | memory = x | memory without address = '{1728841788:2435202864371364902, 1782520825:x } | At slave dummy Haddr = fa17c01a | At slave dummy decimal Haddr = 4195860506
# ---------------------------------------------------------------------------------
# ** Warning: (vsim-3829) Non-existent associative array entry. Returning default value.
#    Time: 135 ns  Iteration: 1  Process: /ahb5_top/tst/#FORK#24_f6623ea File: ../sve/ahb5_slave_dummy_driver.sv Line: 33
# ---------------------------------------------------------------------------------
# ** Warning: (vsim-3829) Non-existent associative array entry. Returning default value.
#    Time: 135 ns  Iteration: 1  Process: /ahb5_top/tst/#FORK#24_f6623ea File: ../sve/ahb5_slave_dummy_driver.sv Line: 36
# READ OPERATION INSIDE SLAVE DUMMY DRIVER TIme = 135 | memory = x | memory without address = '{1728841788:2435202864371364902, 1782520825:x } | At slave dummy Haddr = fa17c01a | At slave dummy decimal Haddr = 4195860506
# ---------------------------------------------------------------------------------
# ** Warning: (vsim-3829) Non-existent associative array entry. Returning default value.
#    Time: 155 ns  Iteration: 1  Process: /ahb5_top/tst/#FORK#24_f6623ea File: ../sve/ahb5_slave_dummy_driver.sv Line: 33
# ---------------------------------------------------------------------------------
# ** Warning: (vsim-3829) Non-existent associative array entry. Returning default value.
#    Time: 155 ns  Iteration: 1  Process: /ahb5_top/tst/#FORK#24_f6623ea File: ../sve/ahb5_slave_dummy_driver.sv Line: 36
# READ OPERATION INSIDE SLAVE DUMMY DRIVER TIme = 155 | memory = x | memory without address = '{1728841788:2435202864371364902, 1782520825:x } | At slave dummy Haddr = fa17c01a | At slave dummy decimal Haddr = 4195860506
# ---------------------------------------------------------------------------------
# ** Warning: (vsim-3829) Non-existent associative array entry. Returning default value.
#    Time: 175 ns  Iteration: 1  Process: /ahb5_top/tst/#FORK#24_f6623ea File: ../sve/ahb5_slave_dummy_driver.sv Line: 33
# ---------------------------------------------------------------------------------
# ** Warning: (vsim-3829) Non-existent associative array entry. Returning default value.
#    Time: 175 ns  Iteration: 1  Process: /ahb5_top/tst/#FORK#24_f6623ea File: ../sve/ahb5_slave_dummy_driver.sv Line: 36
# READ OPERATION INSIDE SLAVE DUMMY DRIVER TIme = 175 | memory = x | memory without address = '{1728841788:2435202864371364902, 1782520825:x } | At slave dummy Haddr = fa17c01a | At slave dummy decimal Haddr = 4195860506
# ---------------------------------------------------------------------------------
# ** Warning: (vsim-3829) Non-existent associative array entry. Returning default value.
#    Time: 195 ns  Iteration: 1  Process: /ahb5_top/tst/#FORK#24_f6623ea File: ../sve/ahb5_slave_dummy_driver.sv Line: 33
# ---------------------------------------------------------------------------------
# ** Warning: (vsim-3829) Non-existent associative array entry. Returning default value.
#    Time: 195 ns  Iteration: 1  Process: /ahb5_top/tst/#FORK#24_f6623ea File: ../sve/ahb5_slave_dummy_driver.sv Line: 36
# READ OPERATION INSIDE SLAVE DUMMY DRIVER TIme = 195 | memory = x | memory without address = '{1728841788:2435202864371364902, 1782520825:x } | At slave dummy Haddr = fa17c01a | At slave dummy decimal Haddr = 4195860506
# ---------------------------------------------------------------------------------
# ** Warning: (vsim-3829) Non-existent associative array entry. Returning default value.
#    Time: 215 ns  Iteration: 1  Process: /ahb5_top/tst/#FORK#24_f6623ea File: ../sve/ahb5_slave_dummy_driver.sv Line: 33
# ---------------------------------------------------------------------------------
# ** Warning: (vsim-3829) Non-existent associative array entry. Returning default value.
#    Time: 215 ns  Iteration: 1  Process: /ahb5_top/tst/#FORK#24_f6623ea File: ../sve/ahb5_slave_dummy_driver.sv Line: 36
# READ OPERATION INSIDE SLAVE DUMMY DRIVER TIme = 215 | memory = x | memory without address = '{1728841788:2435202864371364902, 1782520825:x } | At slave dummy Haddr = fa17c01a | At slave dummy decimal Haddr = 4195860506
# ---------------------------------------------------------------------------------
# ** Warning: (vsim-3829) Non-existent associative array entry. Returning default value.
#    Time: 235 ns  Iteration: 1  Process: /ahb5_top/tst/#FORK#24_f6623ea File: ../sve/ahb5_slave_dummy_driver.sv Line: 33
# ---------------------------------------------------------------------------------
# ** Warning: (vsim-3829) Non-existent associative array entry. Returning default value.
#    Time: 235 ns  Iteration: 1  Process: /ahb5_top/tst/#FORK#24_f6623ea File: ../sve/ahb5_slave_dummy_driver.sv Line: 36
# READ OPERATION INSIDE SLAVE DUMMY DRIVER TIme = 235 | memory = x | memory without address = '{1728841788:2435202864371364902, 1782520825:x } | At slave dummy Haddr = fa17c01a | At slave dummy decimal Haddr = 4195860506
# ---------------------------------------------------------------------------------
# ** Warning: (vsim-3829) Non-existent associative array entry. Returning default value.
#    Time: 255 ns  Iteration: 1  Process: /ahb5_top/tst/#FORK#24_f6623ea File: ../sve/ahb5_slave_dummy_driver.sv Line: 33
# ---------------------------------------------------------------------------------
# ** Warning: (vsim-3829) Non-existent associative array entry. Returning default value.
#    Time: 255 ns  Iteration: 1  Process: /ahb5_top/tst/#FORK#24_f6623ea File: ../sve/ahb5_slave_dummy_driver.sv Line: 36
# READ OPERATION INSIDE SLAVE DUMMY DRIVER TIme = 255 | memory = x | memory without address = '{1728841788:2435202864371364902, 1782520825:x } | At slave dummy Haddr = fa17c01a | At slave dummy decimal Haddr = 4195860506
# ---------------------------------------------------------------------------------
# ** Warning: (vsim-3829) Non-existent associative array entry. Returning default value.
#    Time: 275 ns  Iteration: 1  Process: /ahb5_top/tst/#FORK#24_f6623ea File: ../sve/ahb5_slave_dummy_driver.sv Line: 33
# ---------------------------------------------------------------------------------
# ** Warning: (vsim-3829) Non-existent associative array entry. Returning default value.
#    Time: 275 ns  Iteration: 1  Process: /ahb5_top/tst/#FORK#24_f6623ea File: ../sve/ahb5_slave_dummy_driver.sv Line: 36
# READ OPERATION INSIDE SLAVE DUMMY DRIVER TIme = 275 | memory = x | memory without address = '{1728841788:2435202864371364902, 1782520825:x } | At slave dummy Haddr = fa17c01a | At slave dummy decimal Haddr = 4195860506
# ---------------------------------------------------------------------------------
# ** Warning: (vsim-3829) Non-existent associative array entry. Returning default value.
#    Time: 295 ns  Iteration: 1  Process: /ahb5_top/tst/#FORK#24_f6623ea File: ../sve/ahb5_slave_dummy_driver.sv Line: 33
# ---------------------------------------------------------------------------------
# ** Warning: (vsim-3829) Non-existent associative array entry. Returning default value.
#    Time: 295 ns  Iteration: 1  Process: /ahb5_top/tst/#FORK#24_f6623ea File: ../sve/ahb5_slave_dummy_driver.sv Line: 36
# READ OPERATION INSIDE SLAVE DUMMY DRIVER TIme = 295 | memory = x | memory without address = '{1728841788:2435202864371364902, 1782520825:x } | At slave dummy Haddr = fa17c01a | At slave dummy decimal Haddr = 4195860506
# ---------------------------------------------------------------------------------
# ** Warning: (vsim-3829) Non-existent associative array entry. Returning default value.
#    Time: 315 ns  Iteration: 1  Process: /ahb5_top/tst/#FORK#24_f6623ea File: ../sve/ahb5_slave_dummy_driver.sv Line: 33
# ---------------------------------------------------------------------------------
# ** Warning: (vsim-3829) Non-existent associative array entry. Returning default value.
#    Time: 315 ns  Iteration: 1  Process: /ahb5_top/tst/#FORK#24_f6623ea File: ../sve/ahb5_slave_dummy_driver.sv Line: 36
# READ OPERATION INSIDE SLAVE DUMMY DRIVER TIme = 315 | memory = x | memory without address = '{1728841788:2435202864371364902, 1782520825:x } | At slave dummy Haddr = fa17c01a | At slave dummy decimal Haddr = 4195860506
# ---------------------------------------------------------------------------------
# ** Warning: (vsim-3829) Non-existent associative array entry. Returning default value.
#    Time: 335 ns  Iteration: 1  Process: /ahb5_top/tst/#FORK#24_f6623ea File: ../sve/ahb5_slave_dummy_driver.sv Line: 33
# ---------------------------------------------------------------------------------
# ** Warning: (vsim-3829) Non-existent associative array entry. Returning default value.
#    Time: 335 ns  Iteration: 1  Process: /ahb5_top/tst/#FORK#24_f6623ea File: ../sve/ahb5_slave_dummy_driver.sv Line: 36
# READ OPERATION INSIDE SLAVE DUMMY DRIVER TIme = 335 | memory = x | memory without address = '{1728841788:2435202864371364902, 1782520825:x } | At slave dummy Haddr = fa17c01a | At slave dummy decimal Haddr = 4195860506
# ---------------------------------------------------------------------------------
# ** Warning: (vsim-3829) Non-existent associative array entry. Returning default value.
#    Time: 355 ns  Iteration: 1  Process: /ahb5_top/tst/#FORK#24_f6623ea File: ../sve/ahb5_slave_dummy_driver.sv Line: 33
# ---------------------------------------------------------------------------------
# ** Warning: (vsim-3829) Non-existent associative array entry. Returning default value.
#    Time: 355 ns  Iteration: 1  Process: /ahb5_top/tst/#FORK#24_f6623ea File: ../sve/ahb5_slave_dummy_driver.sv Line: 36
# READ OPERATION INSIDE SLAVE DUMMY DRIVER TIme = 355 | memory = x | memory without address = '{1728841788:2435202864371364902, 1782520825:x } | At slave dummy Haddr = fa17c01a | At slave dummy decimal Haddr = 4195860506
# ---------------------------------------------------------------------------------
# ** Warning: (vsim-3829) Non-existent associative array entry. Returning default value.
#    Time: 375 ns  Iteration: 1  Process: /ahb5_top/tst/#FORK#24_f6623ea File: ../sve/ahb5_slave_dummy_driver.sv Line: 33
# ---------------------------------------------------------------------------------
# ** Warning: (vsim-3829) Non-existent associative array entry. Returning default value.
#    Time: 375 ns  Iteration: 1  Process: /ahb5_top/tst/#FORK#24_f6623ea File: ../sve/ahb5_slave_dummy_driver.sv Line: 36
# READ OPERATION INSIDE SLAVE DUMMY DRIVER TIme = 375 | memory = x | memory without address = '{1728841788:2435202864371364902, 1782520825:x } | At slave dummy Haddr = fa17c01a | At slave dummy decimal Haddr = 4195860506
# ---------------------------------------------------------------------------------
# ** Warning: (vsim-3829) Non-existent associative array entry. Returning default value.
#    Time: 395 ns  Iteration: 1  Process: /ahb5_top/tst/#FORK#24_f6623ea File: ../sve/ahb5_slave_dummy_driver.sv Line: 33
# ---------------------------------------------------------------------------------
# ** Warning: (vsim-3829) Non-existent associative array entry. Returning default value.
#    Time: 395 ns  Iteration: 1  Process: /ahb5_top/tst/#FORK#24_f6623ea File: ../sve/ahb5_slave_dummy_driver.sv Line: 36
# READ OPERATION INSIDE SLAVE DUMMY DRIVER TIme = 395 | memory = x | memory without address = '{1728841788:2435202864371364902, 1782520825:x } | At slave dummy Haddr = fa17c01a | At slave dummy decimal Haddr = 4195860506
# ---------------------------------------------------------------------------------
# ** Warning: (vsim-3829) Non-existent associative array entry. Returning default value.
#    Time: 415 ns  Iteration: 1  Process: /ahb5_top/tst/#FORK#24_f6623ea File: ../sve/ahb5_slave_dummy_driver.sv Line: 33
# ---------------------------------------------------------------------------------
# ** Warning: (vsim-3829) Non-existent associative array entry. Returning default value.
#    Time: 415 ns  Iteration: 1  Process: /ahb5_top/tst/#FORK#24_f6623ea File: ../sve/ahb5_slave_dummy_driver.sv Line: 36
# READ OPERATION INSIDE SLAVE DUMMY DRIVER TIme = 415 | memory = x | memory without address = '{1728841788:2435202864371364902, 1782520825:x } | At slave dummy Haddr = fa17c01a | At slave dummy decimal Haddr = 4195860506
# ---------------------------------------------------------------------------------
# ** Warning: (vsim-3829) Non-existent associative array entry. Returning default value.
#    Time: 435 ns  Iteration: 1  Process: /ahb5_top/tst/#FORK#24_f6623ea File: ../sve/ahb5_slave_dummy_driver.sv Line: 33
# ---------------------------------------------------------------------------------
# ** Warning: (vsim-3829) Non-existent associative array entry. Returning default value.
#    Time: 435 ns  Iteration: 1  Process: /ahb5_top/tst/#FORK#24_f6623ea File: ../sve/ahb5_slave_dummy_driver.sv Line: 36
# READ OPERATION INSIDE SLAVE DUMMY DRIVER TIme = 435 | memory = x | memory without address = '{1728841788:2435202864371364902, 1782520825:x } | At slave dummy Haddr = fa17c01a | At slave dummy decimal Haddr = 4195860506
# ---------------------------------------------------------------------------------
# ** Warning: (vsim-3829) Non-existent associative array entry. Returning default value.
#    Time: 455 ns  Iteration: 1  Process: /ahb5_top/tst/#FORK#24_f6623ea File: ../sve/ahb5_slave_dummy_driver.sv Line: 33
# ---------------------------------------------------------------------------------
# ** Warning: (vsim-3829) Non-existent associative array entry. Returning default value.
#    Time: 455 ns  Iteration: 1  Process: /ahb5_top/tst/#FORK#24_f6623ea File: ../sve/ahb5_slave_dummy_driver.sv Line: 36
# READ OPERATION INSIDE SLAVE DUMMY DRIVER TIme = 455 | memory = x | memory without address = '{1728841788:2435202864371364902, 1782520825:x } | At slave dummy Haddr = fa17c01a | At slave dummy decimal Haddr = 4195860506
# ---------------------------------------------------------------------------------
# ** Warning: (vsim-3829) Non-existent associative array entry. Returning default value.
#    Time: 475 ns  Iteration: 1  Process: /ahb5_top/tst/#FORK#24_f6623ea File: ../sve/ahb5_slave_dummy_driver.sv Line: 33
# ---------------------------------------------------------------------------------
# ** Warning: (vsim-3829) Non-existent associative array entry. Returning default value.
#    Time: 475 ns  Iteration: 1  Process: /ahb5_top/tst/#FORK#24_f6623ea File: ../sve/ahb5_slave_dummy_driver.sv Line: 36
# READ OPERATION INSIDE SLAVE DUMMY DRIVER TIme = 475 | memory = x | memory without address = '{1728841788:2435202864371364902, 1782520825:x } | At slave dummy Haddr = fa17c01a | At slave dummy decimal Haddr = 4195860506
# ---------------------------------------------------------------------------------
# ** Warning: (vsim-3829) Non-existent associative array entry. Returning default value.
#    Time: 495 ns  Iteration: 1  Process: /ahb5_top/tst/#FORK#24_f6623ea File: ../sve/ahb5_slave_dummy_driver.sv Line: 33
# ---------------------------------------------------------------------------------
# ** Warning: (vsim-3829) Non-existent associative array entry. Returning default value.
#    Time: 495 ns  Iteration: 1  Process: /ahb5_top/tst/#FORK#24_f6623ea File: ../sve/ahb5_slave_dummy_driver.sv Line: 36
# READ OPERATION INSIDE SLAVE DUMMY DRIVER TIme = 495 | memory = x | memory without address = '{1728841788:2435202864371364902, 1782520825:x } | At slave dummy Haddr = fa17c01a | At slave dummy decimal Haddr = 4195860506
# ---------------------------------------------------------------------------------
# ** Note: $finish    : ../tb_top/ahb5_top.sv(21)
#    Time: 500 ns  Iteration: 0  Instance: /ahb5_top
# End time: 15:35:54 on Apr 29,2025, Elapsed time: 0:00:05
# Errors: 0, Warnings: 47
