# vsim -c -assertdebug work.tb_opt "+STRING=1" -sv_seed 455 -l ../sim//./log//DIRECTED_TESTCASE_455/DIRECTED_TESTCASE_455.log -do "add wave -r /*; run -all" 
# Start time: 19:38:43 on May 06,2025
# //  Questa Sim
# //  Version 2021.2_1 linux May 15 2021
# //
# //  Copyright 1991-2021 Mentor Graphics Corporation
# //  All Rights Reserved.
# //
# //  QuestaSim and its associated documentation contain trade
# //  secrets and commercial or financial information that are the property of
# //  Mentor Graphics Corporation and are privileged, confidential,
# //  and exempt from disclosure under the Freedom of Information Act,
# //  5 U.S.C. Section 552. Furthermore, this information
# //  is prohibited from disclosure under the Trade Secrets Act,
# //  18 U.S.C. Section 1905.
# //
# Loading sv_std.std
# Loading work.ahb5_interface(fast)
# Loading work.ahb5_pkg(fast)
# Loading work.ahb5_package_sv_unit(fast)
# Loading work.ahb5_top(fast)
# Loading work.ahb5_interface(fast__2)
# Loading work.ahb5_test(fast)
# ** Warning: (vsim-8637) A modport ('ahb5_driver') should not be used in a hierarchical path.
#    Time: 0 ns  Iteration: 0  Region: /ahb5_pkg File: ../sv/ahb5_environment.sv Line: 36
# add wave -r /*
#  run -all
# DIRECTED_TESTCASE This testcase is selected
# [0] Debugging Display 111 of Generator 
# ------------------------------------------------------
# Display Function called from Directed Write case in Generator class
# Display the bits of Hwdata = 64 and size of Hwdata = 64
# Time = 0 | Hwdata = 0x4350d01d1351af3a | Haddr =  0x9c95ab97 | Hrdata = 0xx | Htrans = 0x2 | Hwrite = 0x1 | Hsize = 0x1 | Hburst = 0x6 | Hresp = 0xx | Hsel = 0x0 | Hready = 0xx
# Time = 0 | Haddr_mem = '{2627054487:2627054487 }
# -------------------------------------------------------
# [0] Debugging Display 222 of Generator 
# Time = 0 Debugging display 12
# Time = 0 Debugging display 14
# Time = 0 Debugging display 15
# Time = 0 Hello
# Time = 0 debugging display
# 11-------------------------------------------------------------------------------
# ---------------------------------------------------------------------------------
# Time = 0, intf.Hwrite = x, intf.Hready = x
# ---------------------------------------------------------------------------------
# ---------------------------------------------------------------------------------
# Time = 5 Debugging display 22
# Time = 5 Debugging display 23
# 22-------------------------------------------------------------------------------
# ---------------------------------------------------------------------------------
# Time = 5, intf.Hwrite = x, intf.Hready = x
# ---------------------------------------------------------------------------------
# ---------------------------------------------------------------------------------
# Time = 10 debugging display 622
# Time = 10 debugging display 722
# Time = 10 debugging display 822
# Time = 10 debugging display 922
# Time = 10 debugging display 1122
# Time = 10 debugging display 1222
# Time = 10 debugging display 1322
# Time = 10 debugging display 1422
# Time = 10 debugging display 1522
# Time = 15 Debugging display 24
# Time = 15 Debugging display 25
# ------------------------------------------------------
# Display Function called from driver class
# Display the bits of Hwdata = 64 and size of Hwdata = 64
# Time = 15 | Hwdata = 0x4350d01d1351af3a | Haddr =  0x9c95ab97 | Hrdata = 0xx | Htrans = 0x2 | Hwrite = 0x1 | Hsize = 0x1 | Hburst = 0x6 | Hresp = 0xx | Hsel = 0x0 | Hready = 0xx
# Time = 15 | Haddr_mem = '{2627054487:2627054487 }
# -------------------------------------------------------
# 33-------------------------------------------------------------------------------
# ---------------------------------------------------------------------------------
# Time = 15, intf.Hwrite = 1, intf.Hready = 1
# ---------------------------------------------------------------------------------
# ---------------------------------------------------------------------------------
# ---------------------------------------------------------------------------------
# WRITE OPERATION INSIDE SLAVE DUMMY DRIVER TIme = 15 | memory = 4350d01d1351af3a | memory without address = '{2627054487:4850605621974773562 } | At slave dummy Haddr = 9c95ab97 | At slave dummy decimal Haddr = 2627054487
# ---------------------------------------------------------------------------------
# ---------------------------------------------------------------------------------
# ---------------------------------------------------------------------------------
# Time = 15, intf.Hwrite = 1, intf.Hready = 1
# ---------------------------------------------------------------------------------
# ---------------------------------------------------------------------------------
# 11-------------------------------------------------------------------------------
# ---------------------------------------------------------------------------------
# Time = 15, intf.Hwrite = 1, intf.Hready = 1
# ---------------------------------------------------------------------------------
# ---------------------------------------------------------------------------------
# ------------------------------------------------------
# Display Function called from Write Monitor class
# Display the bits of Hwdata = 64 and size of Hwdata = 64
# Time = 20 | Hwdata = 0x4350d01d1351af3a | Haddr =  0x9c95ab97 | Hrdata = 0xx | Htrans = 0x2 | Hwrite = 0x1 | Hsize = 0x1 | Hburst = 0x6 | Hresp = 0xx | Hsel = 0x0 | Hready = 0x1
# Time = 20 | Haddr_mem = '{ }
# -------------------------------------------------------
# [20] Debugging Display 111 of Monitor 
# ------------------------------------------------------
# Display Function called from Outside Monitor class
# Display the bits of Hwdata = 64 and size of Hwdata = 64
# Time = 20 | Hwdata = 0x4350d01d1351af3a | Haddr =  0x9c95ab97 | Hrdata = 0xx | Htrans = 0x2 | Hwrite = 0x1 | Hsize = 0x1 | Hburst = 0x6 | Hresp = 0xx | Hsel = 0x0 | Hready = 0x1
# Time = 20 | Haddr_mem = '{ }
# -------------------------------------------------------
# [20] Debugging Display 222 of Monitor 
# [20] Debugging Display 333 of Monitor 
# [20] Debugging Display 444 of Monitor 
# Time = 20 debugging display
# [20] Debugging Display 333 of Generator 
# [20] Debugging Display 111 of Generator 
# ------------------------------------------------------
# Display Function called from Directed Write case in Generator class
# Display the bits of Hwdata = 64 and size of Hwdata = 64
# Time = 20 | Hwdata = 0xf4d10bccdc9d11a6 | Haddr =  0x52a37be9 | Hrdata = 0xx | Htrans = 0x2 | Hwrite = 0x1 | Hsize = 0x1 | Hburst = 0x2 | Hresp = 0xx | Hsel = 0x2 | Hready = 0xx
# Time = 20 | Haddr_mem = '{1386445801:1386445801, 2627054487:2627054487 }
# -------------------------------------------------------
# [20] Debugging Display 222 of Generator 
# Time = 20 Debugging display 12
# Time = 20 Debugging display 14
# Time = 20 Debugging display 15
# Time = 20 Hello
# Memory is Filled with Hwdata
# ------------------------------------------------------
# Display Function called from Scoreboard Classs class
# Display the bits of Hwdata = 64 and size of Hwdata = 64
# Time = 20 | Hwdata = 0x4350d01d1351af3a | Haddr =  0x9c95ab97 | Hrdata = 0xx | Htrans = 0x2 | Hwrite = 0x1 | Hsize = 0x1 | Hburst = 0x6 | Hresp = 0xx | Hsel = 0x0 | Hready = 0x1
# Time = 20 | Haddr_mem = '{ }
# -------------------------------------------------------
# Total pass count = 0
# Total fail count = 0
# Total transaction count = 1
# 22-------------------------------------------------------------------------------
# ---------------------------------------------------------------------------------
# Time = 25, intf.Hwrite = 1, intf.Hready = 1
# ---------------------------------------------------------------------------------
# ---------------------------------------------------------------------------------
# Time = 25 Debugging display 22
# Time = 25 Debugging display 23
# Time = 30 debugging display 622
# Time = 30 debugging display 722
# Time = 30 debugging display 822
# Time = 30 debugging display 922
# Time = 30 debugging display 1122
# Time = 30 debugging display 1222
# Time = 30 debugging display 1322
# Time = 30 debugging display 1422
# Time = 30 debugging display 1522
# 33-------------------------------------------------------------------------------
# ---------------------------------------------------------------------------------
# Time = 35, intf.Hwrite = 1, intf.Hready = 0
# ---------------------------------------------------------------------------------
# ---------------------------------------------------------------------------------
# ---------------------------------------------------------------------------------
# ---------------------------------------------------------------------------------
# Time = 35, intf.Hwrite = 1, intf.Hready = 0
# ---------------------------------------------------------------------------------
# ---------------------------------------------------------------------------------
# 11-------------------------------------------------------------------------------
# ---------------------------------------------------------------------------------
# Time = 35, intf.Hwrite = 1, intf.Hready = 1
# ---------------------------------------------------------------------------------
# ---------------------------------------------------------------------------------
# Time = 35 Debugging display 24
# ------------------------------------------------------
# Display Function called from Write Monitor class
# Display the bits of Hwdata = 64 and size of Hwdata = 64
# Time = 40 | Hwdata = 0xf4d10bccdc9d11a6 | Haddr =  0x52a37be9 | Hrdata = 0xx | Htrans = 0x2 | Hwrite = 0x1 | Hsize = 0x1 | Hburst = 0x2 | Hresp = 0x0 | Hsel = 0x0 | Hready = 0x0
# Time = 40 | Haddr_mem = '{ }
# -------------------------------------------------------
# [40] Debugging Display 111 of Monitor 
# ------------------------------------------------------
# Display Function called from Outside Monitor class
# Display the bits of Hwdata = 64 and size of Hwdata = 64
# Time = 40 | Hwdata = 0xf4d10bccdc9d11a6 | Haddr =  0x52a37be9 | Hrdata = 0xx | Htrans = 0x2 | Hwrite = 0x1 | Hsize = 0x1 | Hburst = 0x2 | Hresp = 0x0 | Hsel = 0x0 | Hready = 0x0
# Time = 40 | Haddr_mem = '{ }
# -------------------------------------------------------
# [40] Debugging Display 222 of Monitor 
# [40] Debugging Display 333 of Monitor 
# [40] Debugging Display 444 of Monitor 
# Time = 40 debugging display
# [40] Debugging Display 333 of Generator 
# [40] Debugging Display 111 of Generator 
# ------------------------------------------------------
# Display Function called from Directed Write case in Generator class
# Display the bits of Hwdata = 64 and size of Hwdata = 64
# Time = 40 | Hwdata = 0xb621da86ccc8e558 | Haddr =  0x173592f2 | Hrdata = 0xx | Htrans = 0x2 | Hwrite = 0x1 | Hsize = 0x0 | Hburst = 0x6 | Hresp = 0xx | Hsel = 0x1 | Hready = 0xx
# Time = 40 | Haddr_mem = '{389386994:389386994, 1386445801:1386445801, 2627054487:2627054487 }
# -------------------------------------------------------
# [40] Debugging Display 222 of Generator 
# Memory is Filled with Hwdata
# ------------------------------------------------------
# Display Function called from Scoreboard Classs class
# Display the bits of Hwdata = 64 and size of Hwdata = 64
# Time = 40 | Hwdata = 0xf4d10bccdc9d11a6 | Haddr =  0x52a37be9 | Hrdata = 0xx | Htrans = 0x2 | Hwrite = 0x1 | Hsize = 0x1 | Hburst = 0x2 | Hresp = 0x0 | Hsel = 0x0 | Hready = 0x0
# Time = 40 | Haddr_mem = '{ }
# -------------------------------------------------------
# Total pass count = 0
# Total fail count = 0
# Total transaction count = 2
# 22-------------------------------------------------------------------------------
# ---------------------------------------------------------------------------------
# Time = 45, intf.Hwrite = 1, intf.Hready = 1
# ---------------------------------------------------------------------------------
# ---------------------------------------------------------------------------------
# Time = 45 Debugging display 25
# ------------------------------------------------------
# Display Function called from driver class
# Display the bits of Hwdata = 64 and size of Hwdata = 64
# Time = 45 | Hwdata = 0xb621da86ccc8e558 | Haddr =  0x173592f2 | Hrdata = 0xx | Htrans = 0x2 | Hwrite = 0x1 | Hsize = 0x0 | Hburst = 0x6 | Hresp = 0xx | Hsel = 0x1 | Hready = 0xx
# Time = 45 | Haddr_mem = '{389386994:389386994, 1386445801:1386445801, 2627054487:2627054487 }
# -------------------------------------------------------
# Time = 45 Debugging display 12
# Time = 45 Debugging display 14
# Time = 45 Debugging display 15
# Time = 45 Hello
# Time = 50 debugging display 622
# Time = 50 debugging display 722
# Time = 50 debugging display 822
# Time = 50 debugging display 922
# Time = 50 debugging display 1122
# Time = 50 debugging display 1222
# Time = 50 debugging display 1322
# Time = 50 debugging display 1422
# Time = 50 debugging display 1522
# 33-------------------------------------------------------------------------------
# ---------------------------------------------------------------------------------
# Time = 55, intf.Hwrite = 1, intf.Hready = 1
# ---------------------------------------------------------------------------------
# ---------------------------------------------------------------------------------
# Time = 55 Debugging display 22
# Time = 55 Debugging display 23
# ------------------------------------------------------
# Display Function called from Write Monitor class
# Display the bits of Hwdata = 64 and size of Hwdata = 64
# Time = 60 | Hwdata = 0xf4d10bccdc9d11a6 | Haddr =  0x173592f2 | Hrdata = 0xx | Htrans = 0x2 | Hwrite = 0x1 | Hsize = 0x0 | Hburst = 0x6 | Hresp = 0x0 | Hsel = 0x1 | Hready = 0x1
# Time = 60 | Haddr_mem = '{ }
# -------------------------------------------------------
# [60] Debugging Display 111 of Monitor 
# ------------------------------------------------------
# Display Function called from Outside Monitor class
# Display the bits of Hwdata = 64 and size of Hwdata = 64
# Time = 60 | Hwdata = 0xf4d10bccdc9d11a6 | Haddr =  0x173592f2 | Hrdata = 0xx | Htrans = 0x2 | Hwrite = 0x1 | Hsize = 0x0 | Hburst = 0x6 | Hresp = 0x0 | Hsel = 0x1 | Hready = 0x1
# Time = 60 | Haddr_mem = '{ }
# -------------------------------------------------------
# [60] Debugging Display 222 of Monitor 
# [60] Debugging Display 333 of Monitor 
# [60] Debugging Display 444 of Monitor 
# Time = 60 debugging display
# [60] Debugging Display 333 of Generator 
# [60] Debugging Display 111 of Generator 
# ------------------------------------------------------
# Display Function called from Directed Write case in Generator class
# Display the bits of Hwdata = 64 and size of Hwdata = 64
# Time = 60 | Hwdata = 0x8932a808ebd9729a | Haddr =  0x6292cd9a | Hrdata = 0xx | Htrans = 0x2 | Hwrite = 0x1 | Hsize = 0x0 | Hburst = 0x7 | Hresp = 0xx | Hsel = 0x2 | Hready = 0xx
# Time = 60 | Haddr_mem = '{389386994:389386994, 1386445801:1386445801, 1653788058:1653788058, 2627054487:2627054487 }
# -------------------------------------------------------
# [60] Debugging Display 222 of Generator 
# Memory is Filled with Hwdata
# ------------------------------------------------------
# Display Function called from Scoreboard Classs class
# Display the bits of Hwdata = 64 and size of Hwdata = 64
# Time = 60 | Hwdata = 0xf4d10bccdc9d11a6 | Haddr =  0x173592f2 | Hrdata = 0xx | Htrans = 0x2 | Hwrite = 0x1 | Hsize = 0x0 | Hburst = 0x6 | Hresp = 0x0 | Hsel = 0x1 | Hready = 0x1
# Time = 60 | Haddr_mem = '{ }
# -------------------------------------------------------
# Total pass count = 0
# Total fail count = 0
# Total transaction count = 3
# Time = 65 Debugging display 24
# Time = 65 Debugging display 25
# ------------------------------------------------------
# Display Function called from driver class
# Display the bits of Hwdata = 64 and size of Hwdata = 64
# Time = 65 | Hwdata = 0x8932a808ebd9729a | Haddr =  0x6292cd9a | Hrdata = 0xx | Htrans = 0x2 | Hwrite = 0x1 | Hsize = 0x0 | Hburst = 0x7 | Hresp = 0xx | Hsel = 0x2 | Hready = 0xx
# Time = 65 | Haddr_mem = '{389386994:389386994, 1386445801:1386445801, 1653788058:1653788058, 2627054487:2627054487 }
# -------------------------------------------------------
# Time = 65 Debugging display 12
# Time = 65 Debugging display 14
# Time = 65 Debugging display 15
# Time = 65 Hello
# ---------------------------------------------------------------------------------
# WRITE OPERATION INSIDE SLAVE DUMMY DRIVER TIme = 65 | memory = 8932a808ebd9729a | memory without address = '{1653788058:9886148888301761178, 2627054487:4850605621974773562 } | At slave dummy Haddr = 6292cd9a | At slave dummy decimal Haddr = 1653788058
# ---------------------------------------------------------------------------------
# ---------------------------------------------------------------------------------
# ---------------------------------------------------------------------------------
# Time = 65, intf.Hwrite = 1, intf.Hready = 1
# ---------------------------------------------------------------------------------
# ---------------------------------------------------------------------------------
# 11-------------------------------------------------------------------------------
# ---------------------------------------------------------------------------------
# Time = 65, intf.Hwrite = 1, intf.Hready = 1
# ---------------------------------------------------------------------------------
# ---------------------------------------------------------------------------------
# Time = 70 debugging display 622
# Time = 70 debugging display 722
# Time = 70 debugging display 822
# Time = 70 debugging display 922
# Time = 70 debugging display 1122
# Time = 70 debugging display 1222
# Time = 70 debugging display 1322
# Time = 70 debugging display 1422
# Time = 70 debugging display 1522
# Time = 75 Debugging display 22
# Time = 75 Debugging display 23
# 22-------------------------------------------------------------------------------
# ---------------------------------------------------------------------------------
# Time = 75, intf.Hwrite = 1, intf.Hready = 1
# ---------------------------------------------------------------------------------
# ---------------------------------------------------------------------------------
# ------------------------------------------------------
# Display Function called from Write Monitor class
# Display the bits of Hwdata = 64 and size of Hwdata = 64
# Time = 80 | Hwdata = 0x8932a808ebd9729a | Haddr =  0x6292cd9a | Hrdata = 0xx | Htrans = 0x2 | Hwrite = 0x1 | Hsize = 0x0 | Hburst = 0x7 | Hresp = 0x0 | Hsel = 0x0 | Hready = 0x1
# Time = 80 | Haddr_mem = '{ }
# -------------------------------------------------------
# [80] Debugging Display 111 of Monitor 
# ------------------------------------------------------
# Display Function called from Outside Monitor class
# Display the bits of Hwdata = 64 and size of Hwdata = 64
# Time = 80 | Hwdata = 0x8932a808ebd9729a | Haddr =  0x6292cd9a | Hrdata = 0xx | Htrans = 0x2 | Hwrite = 0x1 | Hsize = 0x0 | Hburst = 0x7 | Hresp = 0x0 | Hsel = 0x0 | Hready = 0x1
# Time = 80 | Haddr_mem = '{ }
# -------------------------------------------------------
# [80] Debugging Display 222 of Monitor 
# [80] Debugging Display 333 of Monitor 
# [80] Debugging Display 444 of Monitor 
# Time = 80 debugging display
# [80] Debugging Display 333 of Generator 
# [80] Debugging Display 111 of Generator 
# ------------------------------------------------------
# Display Function called from Directed Write case in Generator class
# Display the bits of Hwdata = 64 and size of Hwdata = 64
# Time = 80 | Hwdata = 0xfae8d6fbd34537d1 | Haddr =  0x9ade902 | Hrdata = 0xx | Htrans = 0x2 | Hwrite = 0x1 | Hsize = 0x0 | Hburst = 0x0 | Hresp = 0xx | Hsel = 0x1 | Hready = 0xx
# Time = 80 | Haddr_mem = '{162392322:162392322, 389386994:389386994, 1386445801:1386445801, 1653788058:1653788058, 2627054487:2627054487 }
# -------------------------------------------------------
# [80] Debugging Display 222 of Generator 
# Memory is Filled with Hwdata
# ------------------------------------------------------
# Display Function called from Scoreboard Classs class
# Display the bits of Hwdata = 64 and size of Hwdata = 64
# Time = 80 | Hwdata = 0x8932a808ebd9729a | Haddr =  0x6292cd9a | Hrdata = 0xx | Htrans = 0x2 | Hwrite = 0x1 | Hsize = 0x0 | Hburst = 0x7 | Hresp = 0x0 | Hsel = 0x0 | Hready = 0x1
# Time = 80 | Haddr_mem = '{ }
# -------------------------------------------------------
# Total pass count = 0
# Total fail count = 0
# Total transaction count = 4
# Time = 85 Debugging display 24
# Time = 85 Debugging display 25
# ------------------------------------------------------
# Display Function called from driver class
# Display the bits of Hwdata = 64 and size of Hwdata = 64
# Time = 85 | Hwdata = 0xfae8d6fbd34537d1 | Haddr =  0x9ade902 | Hrdata = 0xx | Htrans = 0x2 | Hwrite = 0x1 | Hsize = 0x0 | Hburst = 0x0 | Hresp = 0xx | Hsel = 0x1 | Hready = 0xx
# Time = 85 | Haddr_mem = '{162392322:162392322, 389386994:389386994, 1386445801:1386445801, 1653788058:1653788058, 2627054487:2627054487 }
# -------------------------------------------------------
# Time = 85 Debugging display 12
# Time = 85 Debugging display 14
# Time = 85 Debugging display 15
# Time = 85 Hello
# 33-------------------------------------------------------------------------------
# ---------------------------------------------------------------------------------
# Time = 85, intf.Hwrite = 1, intf.Hready = 1
# ---------------------------------------------------------------------------------
# ---------------------------------------------------------------------------------
# ---------------------------------------------------------------------------------
# WRITE OPERATION INSIDE SLAVE DUMMY DRIVER TIme = 85 | memory = fae8d6fbd34537d1 | memory without address = '{162392322:18079937081148520401, 1653788058:9886148888301761178, 2627054487:4850605621974773562 } | At slave dummy Haddr = 9ade902 | At slave dummy decimal Haddr = 162392322
# ---------------------------------------------------------------------------------
# ---------------------------------------------------------------------------------
# ---------------------------------------------------------------------------------
# Time = 85, intf.Hwrite = 1, intf.Hready = 1
# ---------------------------------------------------------------------------------
# ---------------------------------------------------------------------------------
# 11-------------------------------------------------------------------------------
# ---------------------------------------------------------------------------------
# Time = 85, intf.Hwrite = 1, intf.Hready = 1
# ---------------------------------------------------------------------------------
# ---------------------------------------------------------------------------------
# Time = 90 debugging display 622
# Time = 90 debugging display 722
# Time = 90 debugging display 822
# Time = 90 debugging display 922
# Time = 90 debugging display 1122
# Time = 90 debugging display 1222
# Time = 90 debugging display 1322
# Time = 90 debugging display 1422
# Time = 90 debugging display 1522
# Time = 95 Debugging display 22
# Time = 95 Debugging display 23
# 22-------------------------------------------------------------------------------
# ---------------------------------------------------------------------------------
# Time = 95, intf.Hwrite = 1, intf.Hready = 1
# ---------------------------------------------------------------------------------
# ---------------------------------------------------------------------------------
# ------------------------------------------------------
# Display Function called from Write Monitor class
# Display the bits of Hwdata = 64 and size of Hwdata = 64
# Time = 100 | Hwdata = 0xfae8d6fbd34537d1 | Haddr =  0x9ade902 | Hrdata = 0xx | Htrans = 0x2 | Hwrite = 0x1 | Hsize = 0x0 | Hburst = 0x0 | Hresp = 0x0 | Hsel = 0x1 | Hready = 0x1
# Time = 100 | Haddr_mem = '{ }
# -------------------------------------------------------
# [100] Debugging Display 111 of Monitor 
# ------------------------------------------------------
# Display Function called from Outside Monitor class
# Display the bits of Hwdata = 64 and size of Hwdata = 64
# Time = 100 | Hwdata = 0xfae8d6fbd34537d1 | Haddr =  0x9ade902 | Hrdata = 0xx | Htrans = 0x2 | Hwrite = 0x1 | Hsize = 0x0 | Hburst = 0x0 | Hresp = 0x0 | Hsel = 0x1 | Hready = 0x1
# Time = 100 | Haddr_mem = '{ }
# -------------------------------------------------------
# [100] Debugging Display 222 of Monitor 
# [100] Debugging Display 333 of Monitor 
# [100] Debugging Display 444 of Monitor 
# Time = 100 debugging display
# [100] Debugging Display 333 of Generator 
# [100] Debugging Display 111 of Generator 
# ------------------------------------------------------
# Display Function called from Directed Read case in Generator class
# Display the bits of Hwdata = 64 and size of Hwdata = 64
# Time = 100 | Hwdata = 0xb1e724dd8a8af28a | Haddr =  0x6292cd9a | Hrdata = 0xx | Htrans = 0x2 | Hwrite = 0x0 | Hsize = 0x1 | Hburst = 0x6 | Hresp = 0xx | Hsel = 0x1 | Hready = 0xx
# Time = 100 | Haddr_mem = '{162392322:162392322, 389386994:389386994, 1386445801:1386445801, 2627054487:2627054487 }
# -------------------------------------------------------
# [100] Debugging Display 222 of Generator 
# Memory is Filled with Hwdata
# ------------------------------------------------------
# Display Function called from Scoreboard Classs class
# Display the bits of Hwdata = 64 and size of Hwdata = 64
# Time = 100 | Hwdata = 0xfae8d6fbd34537d1 | Haddr =  0x9ade902 | Hrdata = 0xx | Htrans = 0x2 | Hwrite = 0x1 | Hsize = 0x0 | Hburst = 0x0 | Hresp = 0x0 | Hsel = 0x1 | Hready = 0x1
# Time = 100 | Haddr_mem = '{ }
# -------------------------------------------------------
# Total pass count = 0
# Total fail count = 0
# Total transaction count = 5
# Time = 105 Debugging display 24
# Time = 105 Debugging display 25
# ------------------------------------------------------
# Display Function called from driver class
# Display the bits of Hwdata = 64 and size of Hwdata = 64
# Time = 105 | Hwdata = 0xb1e724dd8a8af28a | Haddr =  0x6292cd9a | Hrdata = 0xx | Htrans = 0x2 | Hwrite = 0x0 | Hsize = 0x1 | Hburst = 0x6 | Hresp = 0xx | Hsel = 0x1 | Hready = 0xx
# Time = 105 | Haddr_mem = '{162392322:162392322, 389386994:389386994, 1386445801:1386445801, 2627054487:2627054487 }
# -------------------------------------------------------
# Time = 105 Debugging display 12
# Time = 105 Debugging display 14
# Time = 105 Debugging display 15
# Time = 105 Hello
# 33-------------------------------------------------------------------------------
# ---------------------------------------------------------------------------------
# Time = 105, intf.Hwrite = 1, intf.Hready = 1
# ---------------------------------------------------------------------------------
# ---------------------------------------------------------------------------------
# ---------------------------------------------------------------------------------
# WRITE OPERATION INSIDE SLAVE DUMMY DRIVER TIme = 105 | memory = b1e724dd8a8af28a | memory without address = '{162392322:18079937081148520401, 1653788058:12819255398264140426, 2627054487:4850605621974773562 } | At slave dummy Haddr = 6292cd9a | At slave dummy decimal Haddr = 1653788058
# ---------------------------------------------------------------------------------
# ---------------------------------------------------------------------------------
# ---------------------------------------------------------------------------------
# Time = 105, intf.Hwrite = 0, intf.Hready = 1
# ---------------------------------------------------------------------------------
# ---------------------------------------------------------------------------------
# Time = 110 debugging display 622
# Time = 110 debugging display 722
# Time = 110 debugging display 822
# Time = 110 debugging display 922
# Time = 110 debugging display 1122
# Time = 110 debugging display 1222
# Time = 110 debugging display 1322
# Time = 110 debugging display 1422
# Time = 110 debugging display 1622
# Time = 115 Debugging display 22
# ------------------------------------------------------
# Display Function called from driver class
# Display the bits of Hwdata = 64 and size of Hwdata = 64
# Time = 115 | Hwdata = 0xb1e724dd8a8af28a | Haddr =  0x6292cd9a | Hrdata = 0xx | Htrans = 0x2 | Hwrite = 0x0 | Hsize = 0x1 | Hburst = 0x6 | Hresp = 0xx | Hsel = 0x1 | Hready = 0xx
# Time = 115 | Haddr_mem = '{162392322:162392322, 389386994:389386994, 1386445801:1386445801, 2627054487:2627054487 }
# -------------------------------------------------------
# ---------------------------------------------------------------------------------
# READ OPERATION INSIDE SLAVE DUMMY DRIVER TIme = 115 | intf.Hrdata = x | memory = b1e724dd8a8af28a | memory without address = '{162392322:18079937081148520401, 1653788058:12819255398264140426, 2627054487:4850605621974773562 } | At slave dummy Haddr = 6292cd9a | At slave dummy decimal Haddr = 1653788058
# ---------------------------------------------------------------------------------
# Time = 115 | intf.Hrdata = x
# 11-------------------------------------------------------------------------------
# ---------------------------------------------------------------------------------
# Time = 115, intf.Hwrite = 0, intf.Hready = 1
# ---------------------------------------------------------------------------------
# ---------------------------------------------------------------------------------
# ------------------------------------------------------
# Display Function called from Read Monitor class
# Display the bits of Hwdata = 64 and size of Hwdata = 64
# Time = 120 | Hwdata = 0xx | Haddr =  0x6292cd9a | Hrdata = 0xb1e724dd8a8af28a | Htrans = 0x2 | Hwrite = 0x0 | Hsize = 0x1 | Hburst = 0x6 | Hresp = 0x0 | Hsel = 0x1 | Hready = 0x1
# Time = 120 | Haddr_mem = '{ }
# -------------------------------------------------------
# [120] Debugging Display 111 of Monitor 
# ------------------------------------------------------
# Display Function called from Outside Monitor class
# Display the bits of Hwdata = 64 and size of Hwdata = 64
# Time = 120 | Hwdata = 0xx | Haddr =  0x6292cd9a | Hrdata = 0xb1e724dd8a8af28a | Htrans = 0x2 | Hwrite = 0x0 | Hsize = 0x1 | Hburst = 0x6 | Hresp = 0x0 | Hsel = 0x1 | Hready = 0x1
# Time = 120 | Haddr_mem = '{ }
# -------------------------------------------------------
# [120] Debugging Display 222 of Monitor 
# [120] Debugging Display 333 of Monitor 
# [120] Debugging Display 444 of Monitor 
# Time = 120 debugging display
# [120] Debugging Display 333 of Generator 
# [120] Debugging Display 111 of Generator 
# ------------------------------------------------------
# Display Function called from Directed Read case in Generator class
# Display the bits of Hwdata = 64 and size of Hwdata = 64
# Time = 120 | Hwdata = 0x9cbe109d56911a1b | Haddr =  0x9c95ab97 | Hrdata = 0xx | Htrans = 0x2 | Hwrite = 0x0 | Hsize = 0x3 | Hburst = 0x5 | Hresp = 0xx | Hsel = 0x2 | Hready = 0xx
# Time = 120 | Haddr_mem = '{162392322:162392322, 389386994:389386994, 1386445801:1386445801 }
# -------------------------------------------------------
# [120] Debugging Display 222 of Generator 
# Time = 120 Debugging display 12
# Time = 120 Debugging display 14
# Time = 120 Debugging display 15
# Time = 120 Hello
# ** Error: SANITY_TESTCASE IS FAILED
#    Time: 120 ns  Scope: ahb5_pkg.ahb5_scoreboard.main File: ../sv/ahb5_scoreboard.sv Line: 29
# ------------------------------------------------------
# Display Function called from Scoreboard Classs class
# Display the bits of Hwdata = 64 and size of Hwdata = 64
# Time = 120 | Hwdata = 0xx | Haddr =  0x6292cd9a | Hrdata = 0xb1e724dd8a8af28a | Htrans = 0x2 | Hwrite = 0x0 | Hsize = 0x1 | Hburst = 0x6 | Hresp = 0x0 | Hsel = 0x1 | Hready = 0x1
# Time = 120 | Haddr_mem = '{ }
# -------------------------------------------------------
# Total pass count = 0
# Total fail count = 1
# Total transaction count = 6
# 22-------------------------------------------------------------------------------
# ---------------------------------------------------------------------------------
# Time = 125, intf.Hwrite = 0, intf.Hready = 1
# ---------------------------------------------------------------------------------
# ---------------------------------------------------------------------------------
# Time = 125 Debugging display 22
# ------------------------------------------------------
# Display Function called from driver class
# Display the bits of Hwdata = 64 and size of Hwdata = 64
# Time = 125 | Hwdata = 0x9cbe109d56911a1b | Haddr =  0x9c95ab97 | Hrdata = 0xx | Htrans = 0x2 | Hwrite = 0x0 | Hsize = 0x3 | Hburst = 0x5 | Hresp = 0xx | Hsel = 0x2 | Hready = 0xx
# Time = 125 | Haddr_mem = '{162392322:162392322, 389386994:389386994, 1386445801:1386445801 }
# -------------------------------------------------------
# Time = 130 debugging display 622
# Time = 130 debugging display 722
# Time = 130 debugging display 822
# Time = 130 debugging display 922
# Time = 130 debugging display 1122
# Time = 130 debugging display 1222
# Time = 130 debugging display 1322
# Time = 130 debugging display 1422
# Time = 130 debugging display 1622
# 33-------------------------------------------------------------------------------
# ---------------------------------------------------------------------------------
# Time = 135, intf.Hwrite = 0, intf.Hready = 1
# ---------------------------------------------------------------------------------
# ---------------------------------------------------------------------------------
# ---------------------------------------------------------------------------------
# ---------------------------------------------------------------------------------
# Time = 135, intf.Hwrite = 0, intf.Hready = 1
# ---------------------------------------------------------------------------------
# ---------------------------------------------------------------------------------
# ------------------------------------------------------
# Display Function called from Read Monitor class
# Display the bits of Hwdata = 64 and size of Hwdata = 64
# Time = 140 | Hwdata = 0xx | Haddr =  0x9c95ab97 | Hrdata = 0xb1e724dd8a8af28a | Htrans = 0x2 | Hwrite = 0x0 | Hsize = 0x3 | Hburst = 0x5 | Hresp = 0x0 | Hsel = 0x0 | Hready = 0x1
# Time = 140 | Haddr_mem = '{ }
# -------------------------------------------------------
# [140] Debugging Display 111 of Monitor 
# ------------------------------------------------------
# Display Function called from Outside Monitor class
# Display the bits of Hwdata = 64 and size of Hwdata = 64
# Time = 140 | Hwdata = 0xx | Haddr =  0x9c95ab97 | Hrdata = 0xb1e724dd8a8af28a | Htrans = 0x2 | Hwrite = 0x0 | Hsize = 0x3 | Hburst = 0x5 | Hresp = 0x0 | Hsel = 0x0 | Hready = 0x1
# Time = 140 | Haddr_mem = '{ }
# -------------------------------------------------------
# [140] Debugging Display 222 of Monitor 
# [140] Debugging Display 333 of Monitor 
# [140] Debugging Display 444 of Monitor 
# Time = 140 debugging display
# [140] Debugging Display 333 of Generator 
# [140] Debugging Display 111 of Generator 
# ------------------------------------------------------
# Display Function called from Directed Read case in Generator class
# Display the bits of Hwdata = 64 and size of Hwdata = 64
# Time = 140 | Hwdata = 0x53ea18aa7054ed28 | Haddr =  0x173592f2 | Hrdata = 0xx | Htrans = 0x2 | Hwrite = 0x0 | Hsize = 0x1 | Hburst = 0x3 | Hresp = 0xx | Hsel = 0x0 | Hready = 0xx
# Time = 140 | Haddr_mem = '{162392322:162392322, 1386445801:1386445801 }
# -------------------------------------------------------
# [140] Debugging Display 222 of Generator 
# Time = 140 Debugging display 12
# Time = 140 Debugging display 14
# Time = 140 Debugging display 15
# Time = 140 Hello
# ** Error: SANITY_TESTCASE IS FAILED
#    Time: 140 ns  Scope: ahb5_pkg.ahb5_scoreboard.main File: ../sv/ahb5_scoreboard.sv Line: 29
# ------------------------------------------------------
# Display Function called from Scoreboard Classs class
# Display the bits of Hwdata = 64 and size of Hwdata = 64
# Time = 140 | Hwdata = 0xx | Haddr =  0x9c95ab97 | Hrdata = 0xb1e724dd8a8af28a | Htrans = 0x2 | Hwrite = 0x0 | Hsize = 0x3 | Hburst = 0x5 | Hresp = 0x0 | Hsel = 0x0 | Hready = 0x1
# Time = 140 | Haddr_mem = '{ }
# -------------------------------------------------------
# Total pass count = 0
# Total fail count = 2
# Total transaction count = 7
# ---------------------------------------------------------------------------------
# READ OPERATION INSIDE SLAVE DUMMY DRIVER TIme = 145 | intf.Hrdata = b1e724dd8a8af28a | memory = 4350d01d1351af3a | memory without address = '{162392322:18079937081148520401, 1653788058:12819255398264140426, 2627054487:4850605621974773562 } | At slave dummy Haddr = 9c95ab97 | At slave dummy decimal Haddr = 2627054487
# ---------------------------------------------------------------------------------
# Time = 145 | intf.Hrdata = b1e724dd8a8af28a
# 11-------------------------------------------------------------------------------
# ---------------------------------------------------------------------------------
# Time = 145, intf.Hwrite = 0, intf.Hready = 1
# ---------------------------------------------------------------------------------
# ---------------------------------------------------------------------------------
# Time = 145 Debugging display 22
# ------------------------------------------------------
# Display Function called from driver class
# Display the bits of Hwdata = 64 and size of Hwdata = 64
# Time = 145 | Hwdata = 0x53ea18aa7054ed28 | Haddr =  0x173592f2 | Hrdata = 0xx | Htrans = 0x2 | Hwrite = 0x0 | Hsize = 0x1 | Hburst = 0x3 | Hresp = 0xx | Hsel = 0x0 | Hready = 0xx
# Time = 145 | Haddr_mem = '{162392322:162392322, 1386445801:1386445801 }
# -------------------------------------------------------
# Time = 150 debugging display 622
# Time = 150 debugging display 722
# Time = 150 debugging display 822
# Time = 150 debugging display 922
# Time = 150 debugging display 1122
# Time = 150 debugging display 1222
# Time = 150 debugging display 1322
# Time = 150 debugging display 1422
# Time = 150 debugging display 1622
# 22-------------------------------------------------------------------------------
# ---------------------------------------------------------------------------------
# Time = 155, intf.Hwrite = 0, intf.Hready = 1
# ---------------------------------------------------------------------------------
# ---------------------------------------------------------------------------------
# ------------------------------------------------------
# Display Function called from Read Monitor class
# Display the bits of Hwdata = 64 and size of Hwdata = 64
# Time = 160 | Hwdata = 0xx | Haddr =  0x173592f2 | Hrdata = 0x4350d01d1351af3a | Htrans = 0x2 | Hwrite = 0x0 | Hsize = 0x1 | Hburst = 0x3 | Hresp = 0x0 | Hsel = 0x0 | Hready = 0x1
# Time = 160 | Haddr_mem = '{ }
# -------------------------------------------------------
# [160] Debugging Display 111 of Monitor 
# ------------------------------------------------------
# Display Function called from Outside Monitor class
# Display the bits of Hwdata = 64 and size of Hwdata = 64
# Time = 160 | Hwdata = 0xx | Haddr =  0x173592f2 | Hrdata = 0x4350d01d1351af3a | Htrans = 0x2 | Hwrite = 0x0 | Hsize = 0x1 | Hburst = 0x3 | Hresp = 0x0 | Hsel = 0x0 | Hready = 0x1
# Time = 160 | Haddr_mem = '{ }
# -------------------------------------------------------
# [160] Debugging Display 222 of Monitor 
# [160] Debugging Display 333 of Monitor 
# [160] Debugging Display 444 of Monitor 
# Time = 160 debugging display
# [160] Debugging Display 333 of Generator 
# [160] Debugging Display 111 of Generator 
# ------------------------------------------------------
# Display Function called from Directed Read case in Generator class
# Display the bits of Hwdata = 64 and size of Hwdata = 64
# Time = 160 | Hwdata = 0x7d790250a59e3837 | Haddr =  0x52a37be9 | Hrdata = 0xx | Htrans = 0x2 | Hwrite = 0x0 | Hsize = 0x1 | Hburst = 0x6 | Hresp = 0xx | Hsel = 0x0 | Hready = 0xx
# Time = 160 | Haddr_mem = '{162392322:162392322 }
# -------------------------------------------------------
# [160] Debugging Display 222 of Generator 
# Time = 160 Debugging display 12
# Time = 160 Debugging display 14
# Time = 160 Debugging display 15
# Time = 160 Hello
# ** Error: SANITY_TESTCASE IS FAILED
#    Time: 160 ns  Scope: ahb5_pkg.ahb5_scoreboard.main File: ../sv/ahb5_scoreboard.sv Line: 29
# ------------------------------------------------------
# Display Function called from Scoreboard Classs class
# Display the bits of Hwdata = 64 and size of Hwdata = 64
# Time = 160 | Hwdata = 0xx | Haddr =  0x173592f2 | Hrdata = 0x4350d01d1351af3a | Htrans = 0x2 | Hwrite = 0x0 | Hsize = 0x1 | Hburst = 0x3 | Hresp = 0x0 | Hsel = 0x0 | Hready = 0x1
# Time = 160 | Haddr_mem = '{ }
# -------------------------------------------------------
# Total pass count = 0
# Total fail count = 3
# Total transaction count = 8
# 33-------------------------------------------------------------------------------
# ---------------------------------------------------------------------------------
# Time = 165, intf.Hwrite = 0, intf.Hready = 1
# ---------------------------------------------------------------------------------
# ---------------------------------------------------------------------------------
# ---------------------------------------------------------------------------------
# ---------------------------------------------------------------------------------
# Time = 165, intf.Hwrite = 0, intf.Hready = 1
# ---------------------------------------------------------------------------------
# ---------------------------------------------------------------------------------
# Time = 165 Debugging display 22
# ------------------------------------------------------
# Display Function called from driver class
# Display the bits of Hwdata = 64 and size of Hwdata = 64
# Time = 165 | Hwdata = 0x7d790250a59e3837 | Haddr =  0x52a37be9 | Hrdata = 0xx | Htrans = 0x2 | Hwrite = 0x0 | Hsize = 0x1 | Hburst = 0x6 | Hresp = 0xx | Hsel = 0x0 | Hready = 0xx
# Time = 165 | Haddr_mem = '{162392322:162392322 }
# -------------------------------------------------------
# Time = 170 debugging display 622
# Time = 170 debugging display 722
# Time = 170 debugging display 822
# Time = 170 debugging display 922
# Time = 170 debugging display 1122
# Time = 170 debugging display 1222
# Time = 170 debugging display 1322
# Time = 170 debugging display 1422
# Time = 170 debugging display 1622
# ** Warning: (vsim-3829) Non-existent associative array entry. Returning default value.
#    Time: 175 ns  Iteration: 1  Process: /ahb5_pkg::ahb5_slave_dummy_driver::main/#FORK#22_f662dab File: ../sve/ahb5_slave_dummy_driver.sv Line: 60
# ---------------------------------------------------------------------------------
# ** Warning: (vsim-3829) Non-existent associative array entry. Returning default value.
#    Time: 175 ns  Iteration: 1  Process: /ahb5_pkg::ahb5_slave_dummy_driver::main/#FORK#22_f662dab File: ../sve/ahb5_slave_dummy_driver.sv Line: 63
# READ OPERATION INSIDE SLAVE DUMMY DRIVER TIme = 175 | intf.Hrdata = 4350d01d1351af3a | memory = x | memory without address = '{162392322:18079937081148520401, 1653788058:12819255398264140426, 2627054487:4850605621974773562 } | At slave dummy Haddr = 52a37be9 | At slave dummy decimal Haddr = 1386445801
# ---------------------------------------------------------------------------------
# Time = 175 | intf.Hrdata = 4350d01d1351af3a
# 11-------------------------------------------------------------------------------
# ---------------------------------------------------------------------------------
# Time = 175, intf.Hwrite = 0, intf.Hready = 1
# ---------------------------------------------------------------------------------
# ---------------------------------------------------------------------------------
# ------------------------------------------------------
# Display Function called from Read Monitor class
# Display the bits of Hwdata = 64 and size of Hwdata = 64
# Time = 180 | Hwdata = 0xx | Haddr =  0x52a37be9 | Hrdata = 0xx | Htrans = 0x2 | Hwrite = 0x0 | Hsize = 0x1 | Hburst = 0x6 | Hresp = 0x0 | Hsel = 0x0 | Hready = 0x1
# Time = 180 | Haddr_mem = '{ }
# -------------------------------------------------------
# [180] Debugging Display 111 of Monitor 
# ------------------------------------------------------
# Display Function called from Outside Monitor class
# Display the bits of Hwdata = 64 and size of Hwdata = 64
# Time = 180 | Hwdata = 0xx | Haddr =  0x52a37be9 | Hrdata = 0xx | Htrans = 0x2 | Hwrite = 0x0 | Hsize = 0x1 | Hburst = 0x6 | Hresp = 0x0 | Hsel = 0x0 | Hready = 0x1
# Time = 180 | Haddr_mem = '{ }
# -------------------------------------------------------
# [180] Debugging Display 222 of Monitor 
# [180] Debugging Display 333 of Monitor 
# [180] Debugging Display 444 of Monitor 
# Time = 180 debugging display
# [180] Debugging Display 333 of Generator 
# [180] Debugging Display 111 of Generator 
# ------------------------------------------------------
# Display Function called from Directed Read case in Generator class
# Display the bits of Hwdata = 64 and size of Hwdata = 64
# Time = 180 | Hwdata = 0x362d65b3a0cd6844 | Haddr =  0x9ade902 | Hrdata = 0xx | Htrans = 0x2 | Hwrite = 0x0 | Hsize = 0x7 | Hburst = 0x3 | Hresp = 0xx | Hsel = 0x2 | Hready = 0xx
# Time = 180 | Haddr_mem = '{ }
# -------------------------------------------------------
# [180] Debugging Display 222 of Generator 
# Time = 180 Debugging display 12
# Time = 180 Debugging display 14
# Time = 180 Debugging display 15
# Time = 180 Hello
# ** Error: SANITY_TESTCASE IS FAILED
#    Time: 180 ns  Scope: ahb5_pkg.ahb5_scoreboard.main File: ../sv/ahb5_scoreboard.sv Line: 29
# ------------------------------------------------------
# Display Function called from Scoreboard Classs class
# Display the bits of Hwdata = 64 and size of Hwdata = 64
# Time = 180 | Hwdata = 0xx | Haddr =  0x52a37be9 | Hrdata = 0xx | Htrans = 0x2 | Hwrite = 0x0 | Hsize = 0x1 | Hburst = 0x6 | Hresp = 0x0 | Hsel = 0x0 | Hready = 0x1
# Time = 180 | Haddr_mem = '{ }
# -------------------------------------------------------
# Total pass count = 0
# Total fail count = 4
# Total transaction count = 9
# 22-------------------------------------------------------------------------------
# ---------------------------------------------------------------------------------
# Time = 185, intf.Hwrite = 0, intf.Hready = 1
# ---------------------------------------------------------------------------------
# ---------------------------------------------------------------------------------
# Time = 185 Debugging display 22
# ------------------------------------------------------
# Display Function called from driver class
# Display the bits of Hwdata = 64 and size of Hwdata = 64
# Time = 185 | Hwdata = 0x362d65b3a0cd6844 | Haddr =  0x9ade902 | Hrdata = 0xx | Htrans = 0x2 | Hwrite = 0x0 | Hsize = 0x7 | Hburst = 0x3 | Hresp = 0xx | Hsel = 0x2 | Hready = 0xx
# Time = 185 | Haddr_mem = '{ }
# -------------------------------------------------------
# Time = 190 debugging display 622
# Time = 190 debugging display 722
# Time = 190 debugging display 822
# Time = 190 debugging display 922
# Time = 190 debugging display 1122
# Time = 190 debugging display 1222
# Time = 190 debugging display 1322
# Time = 190 debugging display 1422
# Time = 190 debugging display 1622
# 33-------------------------------------------------------------------------------
# ---------------------------------------------------------------------------------
# Time = 195, intf.Hwrite = 0, intf.Hready = 1
# ---------------------------------------------------------------------------------
# ---------------------------------------------------------------------------------
# ---------------------------------------------------------------------------------
# ---------------------------------------------------------------------------------
# Time = 195, intf.Hwrite = 0, intf.Hready = 1
# ---------------------------------------------------------------------------------
# ---------------------------------------------------------------------------------
# ------------------------------------------------------
# Display Function called from Read Monitor class
# Display the bits of Hwdata = 64 and size of Hwdata = 64
# Time = 200 | Hwdata = 0xx | Haddr =  0x9ade902 | Hrdata = 0xx | Htrans = 0x2 | Hwrite = 0x0 | Hsize = 0x7 | Hburst = 0x3 | Hresp = 0x0 | Hsel = 0x0 | Hready = 0x1
# Time = 200 | Haddr_mem = '{ }
# -------------------------------------------------------
# [200] Debugging Display 111 of Monitor 
# ------------------------------------------------------
# Display Function called from Outside Monitor class
# Display the bits of Hwdata = 64 and size of Hwdata = 64
# Time = 200 | Hwdata = 0xx | Haddr =  0x9ade902 | Hrdata = 0xx | Htrans = 0x2 | Hwrite = 0x0 | Hsize = 0x7 | Hburst = 0x3 | Hresp = 0x0 | Hsel = 0x0 | Hready = 0x1
# Time = 200 | Haddr_mem = '{ }
# -------------------------------------------------------
# [200] Debugging Display 222 of Monitor 
# [200] Debugging Display 333 of Monitor 
# [200] Debugging Display 444 of Monitor 
# Time = 200 debugging display
# [200] Debugging Display 333 of Generator 
# ** Error: SANITY_TESTCASE IS FAILED
#    Time: 200 ns  Scope: ahb5_pkg.ahb5_scoreboard.main File: ../sv/ahb5_scoreboard.sv Line: 29
# ------------------------------------------------------
# Display Function called from Scoreboard Classs class
# Display the bits of Hwdata = 64 and size of Hwdata = 64
# Time = 200 | Hwdata = 0xx | Haddr =  0x9ade902 | Hrdata = 0xx | Htrans = 0x2 | Hwrite = 0x0 | Hsize = 0x7 | Hburst = 0x3 | Hresp = 0x0 | Hsel = 0x0 | Hready = 0x1
# Time = 200 | Haddr_mem = '{ }
# -------------------------------------------------------
# Total pass count = 0
# Total fail count = 5
# Total transaction count = 10
# ---------------------------------------------------------------------------------
# READ OPERATION INSIDE SLAVE DUMMY DRIVER TIme = 205 | intf.Hrdata = x | memory = fae8d6fbd34537d1 | memory without address = '{162392322:18079937081148520401, 1653788058:12819255398264140426, 2627054487:4850605621974773562 } | At slave dummy Haddr = 9ade902 | At slave dummy decimal Haddr = 162392322
# ---------------------------------------------------------------------------------
# Time = 205 | intf.Hrdata = x
# 11-------------------------------------------------------------------------------
# ---------------------------------------------------------------------------------
# Time = 205, intf.Hwrite = 0, intf.Hready = 1
# ---------------------------------------------------------------------------------
# ---------------------------------------------------------------------------------
# Time = 210 debugging display 622
# Time = 210 debugging display 722
# Time = 210 debugging display 822
# Time = 210 debugging display 922
# Time = 210 debugging display 1122
# Time = 210 debugging display 1222
# Time = 210 debugging display 1322
# Time = 210 debugging display 1422
# Time = 210 debugging display 1622
# 22-------------------------------------------------------------------------------
# ---------------------------------------------------------------------------------
# Time = 215, intf.Hwrite = 0, intf.Hready = 1
# ---------------------------------------------------------------------------------
# ---------------------------------------------------------------------------------
# ------------------------------------------------------
# Display Function called from Read Monitor class
# Display the bits of Hwdata = 64 and size of Hwdata = 64
# Time = 220 | Hwdata = 0xx | Haddr =  0x9ade902 | Hrdata = 0xfae8d6fbd34537d1 | Htrans = 0x2 | Hwrite = 0x0 | Hsize = 0x7 | Hburst = 0x3 | Hresp = 0x0 | Hsel = 0x0 | Hready = 0x1
# Time = 220 | Haddr_mem = '{ }
# -------------------------------------------------------
# [220] Debugging Display 111 of Monitor 
# ------------------------------------------------------
# Display Function called from Outside Monitor class
# Display the bits of Hwdata = 64 and size of Hwdata = 64
# Time = 220 | Hwdata = 0xx | Haddr =  0x9ade902 | Hrdata = 0xfae8d6fbd34537d1 | Htrans = 0x2 | Hwrite = 0x0 | Hsize = 0x7 | Hburst = 0x3 | Hresp = 0x0 | Hsel = 0x0 | Hready = 0x1
# Time = 220 | Haddr_mem = '{ }
# -------------------------------------------------------
# [220] Debugging Display 222 of Monitor 
# [220] Debugging Display 333 of Monitor 
# [220] Debugging Display 444 of Monitor 
# Time = 220 debugging display
# SANITY TESTCASE IS PASSED
# ------------------------------------------------------
# Display Function called from Scoreboard Classs class
# Display the bits of Hwdata = 64 and size of Hwdata = 64
# Time = 220 | Hwdata = 0xx | Haddr =  0x9ade902 | Hrdata = 0xfae8d6fbd34537d1 | Htrans = 0x2 | Hwrite = 0x0 | Hsize = 0x7 | Hburst = 0x3 | Hresp = 0x0 | Hsel = 0x0 | Hready = 0x1
# Time = 220 | Haddr_mem = '{ }
# -------------------------------------------------------
# Total pass count = 1
# Total fail count = 5
# Total transaction count = 11
# 33-------------------------------------------------------------------------------
# ---------------------------------------------------------------------------------
# Time = 225, intf.Hwrite = 0, intf.Hready = 1
# ---------------------------------------------------------------------------------
# ---------------------------------------------------------------------------------
# ---------------------------------------------------------------------------------
# ---------------------------------------------------------------------------------
# Time = 225, intf.Hwrite = 0, intf.Hready = 1
# ---------------------------------------------------------------------------------
# ---------------------------------------------------------------------------------
# Time = 230 debugging display 622
# Time = 230 debugging display 722
# Time = 230 debugging display 822
# Time = 230 debugging display 922
# Time = 230 debugging display 1122
# Time = 230 debugging display 1222
# Time = 230 debugging display 1322
# Time = 230 debugging display 1422
# Time = 230 debugging display 1622
# ---------------------------------------------------------------------------------
# READ OPERATION INSIDE SLAVE DUMMY DRIVER TIme = 235 | intf.Hrdata = fae8d6fbd34537d1 | memory = fae8d6fbd34537d1 | memory without address = '{162392322:18079937081148520401, 1653788058:12819255398264140426, 2627054487:4850605621974773562 } | At slave dummy Haddr = 9ade902 | At slave dummy decimal Haddr = 162392322
# ---------------------------------------------------------------------------------
# Time = 235 | intf.Hrdata = fae8d6fbd34537d1
# 11-------------------------------------------------------------------------------
# ---------------------------------------------------------------------------------
# Time = 235, intf.Hwrite = 0, intf.Hready = 1
# ---------------------------------------------------------------------------------
# ---------------------------------------------------------------------------------
# ** Note: $finish    : ../tb_top/ahb5_top.sv(24)
#    Time: 240 ns  Iteration: 0  Instance: /ahb5_top
# End time: 19:38:48 on May 06,2025, Elapsed time: 0:00:05
# Errors: 5, Warnings: 3
