# vsim -c -assertdebug work.tb_opt "+STRING=2" -sv_seed 455 -l ../sim//./log//RANDOM_TESTCASE_455/RANDOM_TESTCASE_455.log -do "add wave -r /*; run -all" 
# Start time: 11:12:33 on May 03,2025
# //  Questa Sim
# //  Version 2021.2_1 linux May 15 2021
# //
# //  Copyright 1991-2021 Mentor Graphics Corporation
# //  All Rights Reserved.
# //
# //  QuestaSim and its associated documentation contain trade
# //  secrets and commercial or financial information that are the property of
# //  Mentor Graphics Corporation and are privileged, confidential,
# //  and exempt from disclosure under the Freedom of Information Act,
# //  5 U.S.C. Section 552. Furthermore, this information
# //  is prohibited from disclosure under the Trade Secrets Act,
# //  18 U.S.C. Section 1905.
# //
# Loading sv_std.std
# Loading work.ahb5_interface(fast)
# Loading work.ahb5_pkg(fast)
# Loading work.ahb5_package_sv_unit(fast)
# Loading work.ahb5_top(fast)
# Loading work.ahb5_interface(fast__2)
# Loading work.ahb5_test(fast)
# ** Warning: (vsim-8441) Clocking block output intf.cb_master.Hwdata is not legal in this
# or another expression.
#    Time: 0 ns  Iteration: 0  Region: /ahb5_pkg File: ../sv/ahb5_driver.sv Line: 56
# ** Warning: (vsim-8637) A modport ('ahb5_driver') should not be used in a hierarchical path.
#    Time: 0 ns  Iteration: 0  Region: /ahb5_pkg File: ../sv/ahb5_environment.sv Line: 36
# add wave -r /*
#  run -all
# RANDOM_TESTCASE This testcase is selected
# ------------------------------------------------------
# Display Function called from Random Testcase class
# Display the bits of Hwdata = 64 and size of Hwdata = 64
# Time = 0 | Hwdata = 0x8d3b5fdc85444ff0 | Haddr =  0xf8130b67 | Hrdata = 0xx | Htrans = 0x3 | Hwrite = 0x1 | Hsize = 0x4 | Hburst = 0x5 | Hresp = 0xx | Hsel = 0x0 | Hready = 0xx
# Time = 0 | Haddr_mem = '{4161997671:4161997671 }
# -------------------------------------------------------
# Time = 0 Hello
# Time = 0 debugging display
# Time = 0 debugging display 322
# Time = 0 debugging display 422
# Time = 0 debugging display 522
# 11-------------------------------------------------------------------------------
# ---------------------------------------------------------------------------------
# Time = 0, intf.Hwrite = x, intf.Hready = x
# ---------------------------------------------------------------------------------
# ---------------------------------------------------------------------------------
# 22-------------------------------------------------------------------------------
# ---------------------------------------------------------------------------------
# Time = 5, intf.Hwrite = x, intf.Hready = x
# ---------------------------------------------------------------------------------
# ---------------------------------------------------------------------------------
# 222 Time = 15 | intf.cb_master.Hwdata = 8d3b5fdc85444ff0
# ------------------------------------------------------
# Display Function called from driver class
# Display the bits of Hwdata = 64 and size of Hwdata = 64
# Time = 15 | Hwdata = 0x8d3b5fdc85444ff0 | Haddr =  0xf8130b67 | Hrdata = 0xx | Htrans = 0x3 | Hwrite = 0x1 | Hsize = 0x4 | Hburst = 0x5 | Hresp = 0xx | Hsel = 0x0 | Hready = 0xx
# Time = 15 | Haddr_mem = '{4161997671:4161997671 }
# -------------------------------------------------------
# 33-------------------------------------------------------------------------------
# ---------------------------------------------------------------------------------
# Time = 15, intf.Hwrite = 1, intf.Hready = 1
# ---------------------------------------------------------------------------------
# ---------------------------------------------------------------------------------
# Time = 15 debugging display 622
# Time = 15 debugging display 722
# Time = 15 debugging display 822
# Time = 15 debugging display 922
# Time = 15 debugging display 1122
# Time = 15 debugging display 1222
# Time = 15 debugging display 1322
# Time = 15 debugging display 1422
# Time = 15 debugging display 1522
# ------------------------------------------------------
# Display Function called from Write Monitor class
# Display the bits of Hwdata = 64 and size of Hwdata = 64
# Time = 15 | Hwdata = 0x8d3b5fdc85444ff0 | Haddr =  0xf8130b67 | Hrdata = 0xx | Htrans = 0x3 | Hwrite = 0x1 | Hsize = 0x4 | Hburst = 0x5 | Hresp = 0xx | Hsel = 0x0 | Hready = 0x1
# Time = 15 | Haddr_mem = '{ }
# -------------------------------------------------------
# ------------------------------------------------------
# Display Function called from Outside Monitor class
# Display the bits of Hwdata = 64 and size of Hwdata = 64
# Time = 15 | Hwdata = 0x8d3b5fdc85444ff0 | Haddr =  0xf8130b67 | Hrdata = 0xx | Htrans = 0x3 | Hwrite = 0x1 | Hsize = 0x4 | Hburst = 0x5 | Hresp = 0xx | Hsel = 0x0 | Hready = 0x1
# Time = 15 | Haddr_mem = '{ }
# -------------------------------------------------------
# Time = 15 debugging display
# Time = 15 debugging display 322
# Time = 15 debugging display 422
# Time = 15 debugging display 522
# ---------------------------------------------------------------------------------
# WRITE OPERATION INSIDE SLAVE DUMMY DRIVER TIme = 15 | memory = 8d3b5fdc85444ff0 | memory without address = '{4161997671:10176833183707058160 } | At slave dummy Haddr = f8130b67 | At slave dummy decimal Haddr = 4161997671
# ---------------------------------------------------------------------------------
# ---------------------------------------------------------------------------------
# ---------------------------------------------------------------------------------
# Time = 15, intf.Hwrite = 1, intf.Hready = 1
# ---------------------------------------------------------------------------------
# ---------------------------------------------------------------------------------
# 11-------------------------------------------------------------------------------
# ---------------------------------------------------------------------------------
# Time = 15, intf.Hwrite = 1, intf.Hready = 1
# ---------------------------------------------------------------------------------
# ---------------------------------------------------------------------------------
# ------------------------------------------------------
# Display Function called from Random Testcase class
# Display the bits of Hwdata = 64 and size of Hwdata = 64
# Time = 15 | Hwdata = 0x8474700db938f41e | Haddr =  0xf8130b67 | Hrdata = 0xx | Htrans = 0x2 | Hwrite = 0x0 | Hsize = 0x0 | Hburst = 0x5 | Hresp = 0xx | Hsel = 0x1 | Hready = 0xx
# Time = 15 | Haddr_mem = '{ }
# -------------------------------------------------------
# Memory is Filled with Hwdata
# ------------------------------------------------------
# Display Function called from Scoreboard Classs class
# Display the bits of Hwdata = 64 and size of Hwdata = 64
# Time = 15 | Hwdata = 0x8d3b5fdc85444ff0 | Haddr =  0xf8130b67 | Hrdata = 0xx | Htrans = 0x3 | Hwrite = 0x1 | Hsize = 0x4 | Hburst = 0x5 | Hresp = 0xx | Hsel = 0x0 | Hready = 0x1
# Time = 15 | Haddr_mem = '{ }
# -------------------------------------------------------
# Total pass count = 0
# Total fail count = 0
# Total transaction count = 1
# Time = 15 Hello
# 22-------------------------------------------------------------------------------
# ---------------------------------------------------------------------------------
# Time = 25, intf.Hwrite = 0, intf.Hready = 1
# ---------------------------------------------------------------------------------
# ---------------------------------------------------------------------------------
# ------------------------------------------------------
# Display Function called from driver class
# Display the bits of Hwdata = 64 and size of Hwdata = 64
# Time = 25 | Hwdata = 0x8474700db938f41e | Haddr =  0xf8130b67 | Hrdata = 0xx | Htrans = 0x2 | Hwrite = 0x0 | Hsize = 0x0 | Hburst = 0x5 | Hresp = 0xx | Hsel = 0x1 | Hready = 0xx
# Time = 25 | Haddr_mem = '{ }
# -------------------------------------------------------
# 33-------------------------------------------------------------------------------
# ---------------------------------------------------------------------------------
# Time = 35, intf.Hwrite = 0, intf.Hready = 1
# ---------------------------------------------------------------------------------
# ---------------------------------------------------------------------------------
# ---------------------------------------------------------------------------------
# ---------------------------------------------------------------------------------
# Time = 35, intf.Hwrite = 0, intf.Hready = 1
# ---------------------------------------------------------------------------------
# ---------------------------------------------------------------------------------
# ---------------------------------------------------------------------------------
# READ OPERATION INSIDE SLAVE DUMMY DRIVER TIme = 45 | intf.Hrdata = x | memory = 8d3b5fdc85444ff0 | memory without address = '{4161997671:10176833183707058160 } | At slave dummy Haddr = f8130b67 | At slave dummy decimal Haddr = 4161997671
# ---------------------------------------------------------------------------------
# Time = 45 | intf.Hrdata = x
# 11-------------------------------------------------------------------------------
# ---------------------------------------------------------------------------------
# Time = 45, intf.Hwrite = 0, intf.Hready = 1
# ---------------------------------------------------------------------------------
# ---------------------------------------------------------------------------------
# Time = 45 debugging display 622
# Time = 45 debugging display 722
# Time = 45 debugging display 822
# Time = 45 debugging display 922
# Time = 45 debugging display 1122
# Time = 45 debugging display 1222
# Time = 45 debugging display 1322
# Time = 45 debugging display 1422
# Time = 45 debugging display 1622
# ------------------------------------------------------
# Display Function called from Read Monitor class
# Display the bits of Hwdata = 64 and size of Hwdata = 64
# Time = 45 | Hwdata = 0xx | Haddr =  0xf8130b67 | Hrdata = 0x8d3b5fdc85444ff0 | Htrans = 0x2 | Hwrite = 0x0 | Hsize = 0x0 | Hburst = 0x5 | Hresp = 0x0 | Hsel = 0x1 | Hready = 0x1
# Time = 45 | Haddr_mem = '{ }
# -------------------------------------------------------
# ------------------------------------------------------
# Display Function called from Outside Monitor class
# Display the bits of Hwdata = 64 and size of Hwdata = 64
# Time = 45 | Hwdata = 0xx | Haddr =  0xf8130b67 | Hrdata = 0x8d3b5fdc85444ff0 | Htrans = 0x2 | Hwrite = 0x0 | Hsize = 0x0 | Hburst = 0x5 | Hresp = 0x0 | Hsel = 0x1 | Hready = 0x1
# Time = 45 | Haddr_mem = '{ }
# -------------------------------------------------------
# Time = 45 debugging display
# Time = 45 debugging display 322
# Time = 45 debugging display 422
# Time = 45 debugging display 522
# SANITY TESTCASE IS PASSED
# ------------------------------------------------------
# Display Function called from Scoreboard Classs class
# Display the bits of Hwdata = 64 and size of Hwdata = 64
# Time = 45 | Hwdata = 0xx | Haddr =  0xf8130b67 | Hrdata = 0x8d3b5fdc85444ff0 | Htrans = 0x2 | Hwrite = 0x0 | Hsize = 0x0 | Hburst = 0x5 | Hresp = 0x0 | Hsel = 0x1 | Hready = 0x1
# Time = 45 | Haddr_mem = '{ }
# -------------------------------------------------------
# Total pass count = 1
# Total fail count = 0
# Total transaction count = 2
# 22-------------------------------------------------------------------------------
# ---------------------------------------------------------------------------------
# Time = 55, intf.Hwrite = 0, intf.Hready = 1
# ---------------------------------------------------------------------------------
# ---------------------------------------------------------------------------------
# 33-------------------------------------------------------------------------------
# ---------------------------------------------------------------------------------
# Time = 65, intf.Hwrite = 0, intf.Hready = 1
# ---------------------------------------------------------------------------------
# ---------------------------------------------------------------------------------
# ---------------------------------------------------------------------------------
# ---------------------------------------------------------------------------------
# Time = 65, intf.Hwrite = 0, intf.Hready = 1
# ---------------------------------------------------------------------------------
# ---------------------------------------------------------------------------------
# ---------------------------------------------------------------------------------
# READ OPERATION INSIDE SLAVE DUMMY DRIVER TIme = 75 | intf.Hrdata = 8d3b5fdc85444ff0 | memory = 8d3b5fdc85444ff0 | memory without address = '{4161997671:10176833183707058160 } | At slave dummy Haddr = f8130b67 | At slave dummy decimal Haddr = 4161997671
# ---------------------------------------------------------------------------------
# Time = 75 | intf.Hrdata = 8d3b5fdc85444ff0
# 11-------------------------------------------------------------------------------
# ---------------------------------------------------------------------------------
# Time = 75, intf.Hwrite = 0, intf.Hready = 1
# ---------------------------------------------------------------------------------
# ---------------------------------------------------------------------------------
# 22-------------------------------------------------------------------------------
# ---------------------------------------------------------------------------------
# Time = 85, intf.Hwrite = 0, intf.Hready = 1
# ---------------------------------------------------------------------------------
# ---------------------------------------------------------------------------------
# 33-------------------------------------------------------------------------------
# ---------------------------------------------------------------------------------
# Time = 95, intf.Hwrite = 0, intf.Hready = 1
# ---------------------------------------------------------------------------------
# ---------------------------------------------------------------------------------
# ---------------------------------------------------------------------------------
# ---------------------------------------------------------------------------------
# Time = 95, intf.Hwrite = 0, intf.Hready = 1
# ---------------------------------------------------------------------------------
# ---------------------------------------------------------------------------------
# Reset is initiated so all the value is passing zero
# ---------------------------------------------------------------------------------
# READ OPERATION INSIDE SLAVE DUMMY DRIVER TIme = 105 | intf.Hrdata = 8d3b5fdc85444ff0 | memory = 8d3b5fdc85444ff0 | memory without address = '{4161997671:10176833183707058160 } | At slave dummy Haddr = f8130b67 | At slave dummy decimal Haddr = 4161997671
# ---------------------------------------------------------------------------------
# Time = 105 | intf.Hrdata = 8d3b5fdc85444ff0
# 11-------------------------------------------------------------------------------
# ---------------------------------------------------------------------------------
# Time = 105, intf.Hwrite = 0, intf.Hready = 1
# ---------------------------------------------------------------------------------
# ---------------------------------------------------------------------------------
# Time = 105 debugging display 622
# Time = 105 debugging display 722
# Time = 105 debugging display 822
# Time = 105 debugging display 922
# Time = 105 debugging display 1122
# Time = 105 debugging display 1222
# Time = 105 debugging display 1322
# Time = 105 debugging display 1422
# Time = 105 debugging display 1622
# ------------------------------------------------------
# Display Function called from Read Monitor class
# Display the bits of Hwdata = 64 and size of Hwdata = 64
# Time = 105 | Hwdata = 0xx | Haddr =  0x0 | Hrdata = 0x8d3b5fdc85444ff0 | Htrans = 0x0 | Hwrite = 0x0 | Hsize = 0x0 | Hburst = 0x0 | Hresp = 0x0 | Hsel = 0x0 | Hready = 0x1
# Time = 105 | Haddr_mem = '{ }
# -------------------------------------------------------
# ------------------------------------------------------
# Display Function called from Outside Monitor class
# Display the bits of Hwdata = 64 and size of Hwdata = 64
# Time = 105 | Hwdata = 0xx | Haddr =  0x0 | Hrdata = 0x8d3b5fdc85444ff0 | Htrans = 0x0 | Hwrite = 0x0 | Hsize = 0x0 | Hburst = 0x0 | Hresp = 0x0 | Hsel = 0x0 | Hready = 0x1
# Time = 105 | Haddr_mem = '{ }
# -------------------------------------------------------
# Time = 105 debugging display
# Time = 105 debugging display 322
# Time = 105 debugging display 422
# Time = 105 debugging display 522
# ** Warning: (vsim-3829) Non-existent associative array entry. Returning default value.
#    Time: 105 ns  Iteration: 1  Process: /ahb5_pkg::ahb5_environment::test_run/#FORK#46_f662cab File: ../sv/ahb5_scoreboard.sv Line: 24
# ** Error: SANITY_TESTCASE IS FAILED
#    Time: 105 ns  Scope: ahb5_pkg.ahb5_scoreboard.main File: ../sv/ahb5_scoreboard.sv Line: 29
# ------------------------------------------------------
# Display Function called from Scoreboard Classs class
# Display the bits of Hwdata = 64 and size of Hwdata = 64
# Time = 105 | Hwdata = 0xx | Haddr =  0x0 | Hrdata = 0x8d3b5fdc85444ff0 | Htrans = 0x0 | Hwrite = 0x0 | Hsize = 0x0 | Hburst = 0x0 | Hresp = 0x0 | Hsel = 0x0 | Hready = 0x1
# Time = 105 | Haddr_mem = '{ }
# -------------------------------------------------------
# Total pass count = 1
# Total fail count = 1
# Total transaction count = 3
# 22-------------------------------------------------------------------------------
# ---------------------------------------------------------------------------------
# Time = 115, intf.Hwrite = 0, intf.Hready = 1
# ---------------------------------------------------------------------------------
# ---------------------------------------------------------------------------------
# 33-------------------------------------------------------------------------------
# ---------------------------------------------------------------------------------
# Time = 125, intf.Hwrite = 0, intf.Hready = 1
# ---------------------------------------------------------------------------------
# ---------------------------------------------------------------------------------
# ---------------------------------------------------------------------------------
# ---------------------------------------------------------------------------------
# Time = 125, intf.Hwrite = 0, intf.Hready = 1
# ---------------------------------------------------------------------------------
# ---------------------------------------------------------------------------------
# ** Warning: (vsim-3829) Non-existent associative array entry. Returning default value.
#    Time: 135 ns  Iteration: 1  Process: /ahb5_top/tst/#FORK#24_f662582 File: ../sve/ahb5_slave_dummy_driver.sv Line: 55
# ---------------------------------------------------------------------------------
# ** Warning: (vsim-3829) Non-existent associative array entry. Returning default value.
#    Time: 135 ns  Iteration: 1  Process: /ahb5_top/tst/#FORK#24_f662582 File: ../sve/ahb5_slave_dummy_driver.sv Line: 58
# READ OPERATION INSIDE SLAVE DUMMY DRIVER TIme = 135 | intf.Hrdata = 8d3b5fdc85444ff0 | memory = x | memory without address = '{4161997671:10176833183707058160 } | At slave dummy Haddr = 0 | At slave dummy decimal Haddr = 0
# ---------------------------------------------------------------------------------
# Time = 135 | intf.Hrdata = 8d3b5fdc85444ff0
# 11-------------------------------------------------------------------------------
# ---------------------------------------------------------------------------------
# Time = 135, intf.Hwrite = 0, intf.Hready = 1
# ---------------------------------------------------------------------------------
# ---------------------------------------------------------------------------------
# Time = 135 debugging display 622
# Time = 135 debugging display 722
# Time = 135 debugging display 822
# Time = 135 debugging display 922
# Time = 135 debugging display 1122
# Time = 135 debugging display 1222
# Time = 135 debugging display 1322
# Time = 135 debugging display 1422
# Time = 135 debugging display 1622
# ------------------------------------------------------
# Display Function called from Read Monitor class
# Display the bits of Hwdata = 64 and size of Hwdata = 64
# Time = 135 | Hwdata = 0xx | Haddr =  0x0 | Hrdata = 0xx | Htrans = 0x0 | Hwrite = 0x0 | Hsize = 0x0 | Hburst = 0x0 | Hresp = 0x0 | Hsel = 0x0 | Hready = 0x1
# Time = 135 | Haddr_mem = '{ }
# -------------------------------------------------------
# ------------------------------------------------------
# Display Function called from Outside Monitor class
# Display the bits of Hwdata = 64 and size of Hwdata = 64
# Time = 135 | Hwdata = 0xx | Haddr =  0x0 | Hrdata = 0xx | Htrans = 0x0 | Hwrite = 0x0 | Hsize = 0x0 | Hburst = 0x0 | Hresp = 0x0 | Hsel = 0x0 | Hready = 0x1
# Time = 135 | Haddr_mem = '{ }
# -------------------------------------------------------
# Time = 135 debugging display
# Time = 135 debugging display 322
# Time = 135 debugging display 422
# Time = 135 debugging display 522
# ** Warning: (vsim-3829) Non-existent associative array entry. Returning default value.
#    Time: 135 ns  Iteration: 1  Process: /ahb5_pkg::ahb5_environment::test_run/#FORK#46_f662cab File: ../sv/ahb5_scoreboard.sv Line: 24
# ** Error: SANITY_TESTCASE IS FAILED
#    Time: 135 ns  Scope: ahb5_pkg.ahb5_scoreboard.main File: ../sv/ahb5_scoreboard.sv Line: 29
# ------------------------------------------------------
# Display Function called from Scoreboard Classs class
# Display the bits of Hwdata = 64 and size of Hwdata = 64
# Time = 135 | Hwdata = 0xx | Haddr =  0x0 | Hrdata = 0xx | Htrans = 0x0 | Hwrite = 0x0 | Hsize = 0x0 | Hburst = 0x0 | Hresp = 0x0 | Hsel = 0x0 | Hready = 0x1
# Time = 135 | Haddr_mem = '{ }
# -------------------------------------------------------
# Total pass count = 1
# Total fail count = 2
# Total transaction count = 4
# 22-------------------------------------------------------------------------------
# ---------------------------------------------------------------------------------
# Time = 145, intf.Hwrite = 0, intf.Hready = 1
# ---------------------------------------------------------------------------------
# ---------------------------------------------------------------------------------
# 33-------------------------------------------------------------------------------
# ---------------------------------------------------------------------------------
# Time = 155, intf.Hwrite = 0, intf.Hready = 1
# ---------------------------------------------------------------------------------
# ---------------------------------------------------------------------------------
# ---------------------------------------------------------------------------------
# ---------------------------------------------------------------------------------
# Time = 155, intf.Hwrite = 0, intf.Hready = 1
# ---------------------------------------------------------------------------------
# ---------------------------------------------------------------------------------
# ** Warning: (vsim-3829) Non-existent associative array entry. Returning default value.
#    Time: 165 ns  Iteration: 1  Process: /ahb5_top/tst/#FORK#24_f662582 File: ../sve/ahb5_slave_dummy_driver.sv Line: 55
# ---------------------------------------------------------------------------------
# ** Warning: (vsim-3829) Non-existent associative array entry. Returning default value.
#    Time: 165 ns  Iteration: 1  Process: /ahb5_top/tst/#FORK#24_f662582 File: ../sve/ahb5_slave_dummy_driver.sv Line: 58
# READ OPERATION INSIDE SLAVE DUMMY DRIVER TIme = 165 | intf.Hrdata = x | memory = x | memory without address = '{4161997671:10176833183707058160 } | At slave dummy Haddr = 0 | At slave dummy decimal Haddr = 0
# ---------------------------------------------------------------------------------
# Time = 165 | intf.Hrdata = x
# 11-------------------------------------------------------------------------------
# ---------------------------------------------------------------------------------
# Time = 165, intf.Hwrite = 0, intf.Hready = 1
# ---------------------------------------------------------------------------------
# ---------------------------------------------------------------------------------
# 22-------------------------------------------------------------------------------
# ---------------------------------------------------------------------------------
# Time = 175, intf.Hwrite = 0, intf.Hready = 1
# ---------------------------------------------------------------------------------
# ---------------------------------------------------------------------------------
# 33-------------------------------------------------------------------------------
# ---------------------------------------------------------------------------------
# Time = 185, intf.Hwrite = 0, intf.Hready = 1
# ---------------------------------------------------------------------------------
# ---------------------------------------------------------------------------------
# ---------------------------------------------------------------------------------
# ---------------------------------------------------------------------------------
# Time = 185, intf.Hwrite = 0, intf.Hready = 1
# ---------------------------------------------------------------------------------
# ---------------------------------------------------------------------------------
# ** Warning: (vsim-3829) Non-existent associative array entry. Returning default value.
#    Time: 195 ns  Iteration: 1  Process: /ahb5_top/tst/#FORK#24_f662582 File: ../sve/ahb5_slave_dummy_driver.sv Line: 55
# ---------------------------------------------------------------------------------
# ** Warning: (vsim-3829) Non-existent associative array entry. Returning default value.
#    Time: 195 ns  Iteration: 1  Process: /ahb5_top/tst/#FORK#24_f662582 File: ../sve/ahb5_slave_dummy_driver.sv Line: 58
# READ OPERATION INSIDE SLAVE DUMMY DRIVER TIme = 195 | intf.Hrdata = x | memory = x | memory without address = '{4161997671:10176833183707058160 } | At slave dummy Haddr = 0 | At slave dummy decimal Haddr = 0
# ---------------------------------------------------------------------------------
# Time = 195 | intf.Hrdata = x
# 11-------------------------------------------------------------------------------
# ---------------------------------------------------------------------------------
# Time = 195, intf.Hwrite = 0, intf.Hready = 1
# ---------------------------------------------------------------------------------
# ---------------------------------------------------------------------------------
# 22-------------------------------------------------------------------------------
# ---------------------------------------------------------------------------------
# Time = 205, intf.Hwrite = 0, intf.Hready = 1
# ---------------------------------------------------------------------------------
# ---------------------------------------------------------------------------------
# 33-------------------------------------------------------------------------------
# ---------------------------------------------------------------------------------
# Time = 215, intf.Hwrite = 0, intf.Hready = 1
# ---------------------------------------------------------------------------------
# ---------------------------------------------------------------------------------
# ---------------------------------------------------------------------------------
# ---------------------------------------------------------------------------------
# Time = 215, intf.Hwrite = 0, intf.Hready = 1
# ---------------------------------------------------------------------------------
# ---------------------------------------------------------------------------------
# ** Warning: (vsim-3829) Non-existent associative array entry. Returning default value.
#    Time: 225 ns  Iteration: 1  Process: /ahb5_top/tst/#FORK#24_f662582 File: ../sve/ahb5_slave_dummy_driver.sv Line: 55
# ---------------------------------------------------------------------------------
# ** Warning: (vsim-3829) Non-existent associative array entry. Returning default value.
#    Time: 225 ns  Iteration: 1  Process: /ahb5_top/tst/#FORK#24_f662582 File: ../sve/ahb5_slave_dummy_driver.sv Line: 58
# READ OPERATION INSIDE SLAVE DUMMY DRIVER TIme = 225 | intf.Hrdata = x | memory = x | memory without address = '{4161997671:10176833183707058160 } | At slave dummy Haddr = 0 | At slave dummy decimal Haddr = 0
# ---------------------------------------------------------------------------------
# Time = 225 | intf.Hrdata = x
# 11-------------------------------------------------------------------------------
# ---------------------------------------------------------------------------------
# Time = 225, intf.Hwrite = 0, intf.Hready = 1
# ---------------------------------------------------------------------------------
# ---------------------------------------------------------------------------------
# 22-------------------------------------------------------------------------------
# ---------------------------------------------------------------------------------
# Time = 235, intf.Hwrite = 0, intf.Hready = 1
# ---------------------------------------------------------------------------------
# ---------------------------------------------------------------------------------
# 33-------------------------------------------------------------------------------
# ---------------------------------------------------------------------------------
# Time = 245, intf.Hwrite = 0, intf.Hready = 1
# ---------------------------------------------------------------------------------
# ---------------------------------------------------------------------------------
# ---------------------------------------------------------------------------------
# ---------------------------------------------------------------------------------
# Time = 245, intf.Hwrite = 0, intf.Hready = 1
# ---------------------------------------------------------------------------------
# ---------------------------------------------------------------------------------
# ** Warning: (vsim-3829) Non-existent associative array entry. Returning default value.
#    Time: 255 ns  Iteration: 1  Process: /ahb5_top/tst/#FORK#24_f662582 File: ../sve/ahb5_slave_dummy_driver.sv Line: 55
# ---------------------------------------------------------------------------------
# ** Warning: (vsim-3829) Non-existent associative array entry. Returning default value.
#    Time: 255 ns  Iteration: 1  Process: /ahb5_top/tst/#FORK#24_f662582 File: ../sve/ahb5_slave_dummy_driver.sv Line: 58
# READ OPERATION INSIDE SLAVE DUMMY DRIVER TIme = 255 | intf.Hrdata = x | memory = x | memory without address = '{4161997671:10176833183707058160 } | At slave dummy Haddr = 0 | At slave dummy decimal Haddr = 0
# ---------------------------------------------------------------------------------
# Time = 255 | intf.Hrdata = x
# 11-------------------------------------------------------------------------------
# ---------------------------------------------------------------------------------
# Time = 255, intf.Hwrite = 0, intf.Hready = 1
# ---------------------------------------------------------------------------------
# ---------------------------------------------------------------------------------
# 22-------------------------------------------------------------------------------
# ---------------------------------------------------------------------------------
# Time = 265, intf.Hwrite = 0, intf.Hready = 1
# ---------------------------------------------------------------------------------
# ---------------------------------------------------------------------------------
# 33-------------------------------------------------------------------------------
# ---------------------------------------------------------------------------------
# Time = 275, intf.Hwrite = 0, intf.Hready = 1
# ---------------------------------------------------------------------------------
# ---------------------------------------------------------------------------------
# ---------------------------------------------------------------------------------
# ---------------------------------------------------------------------------------
# Time = 275, intf.Hwrite = 0, intf.Hready = 1
# ---------------------------------------------------------------------------------
# ---------------------------------------------------------------------------------
# ** Warning: (vsim-3829) Non-existent associative array entry. Returning default value.
#    Time: 285 ns  Iteration: 1  Process: /ahb5_top/tst/#FORK#24_f662582 File: ../sve/ahb5_slave_dummy_driver.sv Line: 55
# ---------------------------------------------------------------------------------
# ** Warning: (vsim-3829) Non-existent associative array entry. Returning default value.
#    Time: 285 ns  Iteration: 1  Process: /ahb5_top/tst/#FORK#24_f662582 File: ../sve/ahb5_slave_dummy_driver.sv Line: 58
# READ OPERATION INSIDE SLAVE DUMMY DRIVER TIme = 285 | intf.Hrdata = x | memory = x | memory without address = '{4161997671:10176833183707058160 } | At slave dummy Haddr = 0 | At slave dummy decimal Haddr = 0
# ---------------------------------------------------------------------------------
# Time = 285 | intf.Hrdata = x
# 11-------------------------------------------------------------------------------
# ---------------------------------------------------------------------------------
# Time = 285, intf.Hwrite = 0, intf.Hready = 1
# ---------------------------------------------------------------------------------
# ---------------------------------------------------------------------------------
# 22-------------------------------------------------------------------------------
# ---------------------------------------------------------------------------------
# Time = 295, intf.Hwrite = 0, intf.Hready = 1
# ---------------------------------------------------------------------------------
# ---------------------------------------------------------------------------------
# 33-------------------------------------------------------------------------------
# ---------------------------------------------------------------------------------
# Time = 305, intf.Hwrite = 0, intf.Hready = 1
# ---------------------------------------------------------------------------------
# ---------------------------------------------------------------------------------
# ---------------------------------------------------------------------------------
# ---------------------------------------------------------------------------------
# Time = 305, intf.Hwrite = 0, intf.Hready = 1
# ---------------------------------------------------------------------------------
# ---------------------------------------------------------------------------------
# ** Warning: (vsim-3829) Non-existent associative array entry. Returning default value.
#    Time: 315 ns  Iteration: 1  Process: /ahb5_top/tst/#FORK#24_f662582 File: ../sve/ahb5_slave_dummy_driver.sv Line: 55
# ---------------------------------------------------------------------------------
# ** Warning: (vsim-3829) Non-existent associative array entry. Returning default value.
#    Time: 315 ns  Iteration: 1  Process: /ahb5_top/tst/#FORK#24_f662582 File: ../sve/ahb5_slave_dummy_driver.sv Line: 58
# READ OPERATION INSIDE SLAVE DUMMY DRIVER TIme = 315 | intf.Hrdata = x | memory = x | memory without address = '{4161997671:10176833183707058160 } | At slave dummy Haddr = 0 | At slave dummy decimal Haddr = 0
# ---------------------------------------------------------------------------------
# Time = 315 | intf.Hrdata = x
# 11-------------------------------------------------------------------------------
# ---------------------------------------------------------------------------------
# Time = 315, intf.Hwrite = 0, intf.Hready = 1
# ---------------------------------------------------------------------------------
# ---------------------------------------------------------------------------------
# 22-------------------------------------------------------------------------------
# ---------------------------------------------------------------------------------
# Time = 325, intf.Hwrite = 0, intf.Hready = 1
# ---------------------------------------------------------------------------------
# ---------------------------------------------------------------------------------
# 33-------------------------------------------------------------------------------
# ---------------------------------------------------------------------------------
# Time = 335, intf.Hwrite = 0, intf.Hready = 1
# ---------------------------------------------------------------------------------
# ---------------------------------------------------------------------------------
# ---------------------------------------------------------------------------------
# ---------------------------------------------------------------------------------
# Time = 335, intf.Hwrite = 0, intf.Hready = 1
# ---------------------------------------------------------------------------------
# ---------------------------------------------------------------------------------
# ** Warning: (vsim-3829) Non-existent associative array entry. Returning default value.
#    Time: 345 ns  Iteration: 1  Process: /ahb5_top/tst/#FORK#24_f662582 File: ../sve/ahb5_slave_dummy_driver.sv Line: 55
# ---------------------------------------------------------------------------------
# ** Warning: (vsim-3829) Non-existent associative array entry. Returning default value.
#    Time: 345 ns  Iteration: 1  Process: /ahb5_top/tst/#FORK#24_f662582 File: ../sve/ahb5_slave_dummy_driver.sv Line: 58
# READ OPERATION INSIDE SLAVE DUMMY DRIVER TIme = 345 | intf.Hrdata = x | memory = x | memory without address = '{4161997671:10176833183707058160 } | At slave dummy Haddr = 0 | At slave dummy decimal Haddr = 0
# ---------------------------------------------------------------------------------
# Time = 345 | intf.Hrdata = x
# 11-------------------------------------------------------------------------------
# ---------------------------------------------------------------------------------
# Time = 345, intf.Hwrite = 0, intf.Hready = 1
# ---------------------------------------------------------------------------------
# ---------------------------------------------------------------------------------
# 22-------------------------------------------------------------------------------
# ---------------------------------------------------------------------------------
# Time = 355, intf.Hwrite = 0, intf.Hready = 1
# ---------------------------------------------------------------------------------
# ---------------------------------------------------------------------------------
# 33-------------------------------------------------------------------------------
# ---------------------------------------------------------------------------------
# Time = 365, intf.Hwrite = 0, intf.Hready = 1
# ---------------------------------------------------------------------------------
# ---------------------------------------------------------------------------------
# ---------------------------------------------------------------------------------
# ---------------------------------------------------------------------------------
# Time = 365, intf.Hwrite = 0, intf.Hready = 1
# ---------------------------------------------------------------------------------
# ---------------------------------------------------------------------------------
# ** Warning: (vsim-3829) Non-existent associative array entry. Returning default value.
#    Time: 375 ns  Iteration: 1  Process: /ahb5_top/tst/#FORK#24_f662582 File: ../sve/ahb5_slave_dummy_driver.sv Line: 55
# ---------------------------------------------------------------------------------
# ** Warning: (vsim-3829) Non-existent associative array entry. Returning default value.
#    Time: 375 ns  Iteration: 1  Process: /ahb5_top/tst/#FORK#24_f662582 File: ../sve/ahb5_slave_dummy_driver.sv Line: 58
# READ OPERATION INSIDE SLAVE DUMMY DRIVER TIme = 375 | intf.Hrdata = x | memory = x | memory without address = '{4161997671:10176833183707058160 } | At slave dummy Haddr = 0 | At slave dummy decimal Haddr = 0
# ---------------------------------------------------------------------------------
# Time = 375 | intf.Hrdata = x
# 11-------------------------------------------------------------------------------
# ---------------------------------------------------------------------------------
# Time = 375, intf.Hwrite = 0, intf.Hready = 1
# ---------------------------------------------------------------------------------
# ---------------------------------------------------------------------------------
# 22-------------------------------------------------------------------------------
# ---------------------------------------------------------------------------------
# Time = 385, intf.Hwrite = 0, intf.Hready = 1
# ---------------------------------------------------------------------------------
# ---------------------------------------------------------------------------------
# 33-------------------------------------------------------------------------------
# ---------------------------------------------------------------------------------
# Time = 395, intf.Hwrite = 0, intf.Hready = 1
# ---------------------------------------------------------------------------------
# ---------------------------------------------------------------------------------
# ---------------------------------------------------------------------------------
# ---------------------------------------------------------------------------------
# Time = 395, intf.Hwrite = 0, intf.Hready = 1
# ---------------------------------------------------------------------------------
# ---------------------------------------------------------------------------------
# ** Warning: (vsim-3829) Non-existent associative array entry. Returning default value.
#    Time: 405 ns  Iteration: 1  Process: /ahb5_top/tst/#FORK#24_f662582 File: ../sve/ahb5_slave_dummy_driver.sv Line: 55
# ---------------------------------------------------------------------------------
# ** Warning: (vsim-3829) Non-existent associative array entry. Returning default value.
#    Time: 405 ns  Iteration: 1  Process: /ahb5_top/tst/#FORK#24_f662582 File: ../sve/ahb5_slave_dummy_driver.sv Line: 58
# READ OPERATION INSIDE SLAVE DUMMY DRIVER TIme = 405 | intf.Hrdata = x | memory = x | memory without address = '{4161997671:10176833183707058160 } | At slave dummy Haddr = 0 | At slave dummy decimal Haddr = 0
# ---------------------------------------------------------------------------------
# Time = 405 | intf.Hrdata = x
# 11-------------------------------------------------------------------------------
# ---------------------------------------------------------------------------------
# Time = 405, intf.Hwrite = 0, intf.Hready = 1
# ---------------------------------------------------------------------------------
# ---------------------------------------------------------------------------------
# 22-------------------------------------------------------------------------------
# ---------------------------------------------------------------------------------
# Time = 415, intf.Hwrite = 0, intf.Hready = 1
# ---------------------------------------------------------------------------------
# ---------------------------------------------------------------------------------
# 33-------------------------------------------------------------------------------
# ---------------------------------------------------------------------------------
# Time = 425, intf.Hwrite = 0, intf.Hready = 1
# ---------------------------------------------------------------------------------
# ---------------------------------------------------------------------------------
# ---------------------------------------------------------------------------------
# ---------------------------------------------------------------------------------
# Time = 425, intf.Hwrite = 0, intf.Hready = 1
# ---------------------------------------------------------------------------------
# ---------------------------------------------------------------------------------
# ** Warning: (vsim-3829) Non-existent associative array entry. Returning default value.
#    Time: 435 ns  Iteration: 1  Process: /ahb5_top/tst/#FORK#24_f662582 File: ../sve/ahb5_slave_dummy_driver.sv Line: 55
# ---------------------------------------------------------------------------------
# ** Warning: (vsim-3829) Non-existent associative array entry. Returning default value.
#    Time: 435 ns  Iteration: 1  Process: /ahb5_top/tst/#FORK#24_f662582 File: ../sve/ahb5_slave_dummy_driver.sv Line: 58
# READ OPERATION INSIDE SLAVE DUMMY DRIVER TIme = 435 | intf.Hrdata = x | memory = x | memory without address = '{4161997671:10176833183707058160 } | At slave dummy Haddr = 0 | At slave dummy decimal Haddr = 0
# ---------------------------------------------------------------------------------
# Time = 435 | intf.Hrdata = x
# 11-------------------------------------------------------------------------------
# ---------------------------------------------------------------------------------
# Time = 435, intf.Hwrite = 0, intf.Hready = 1
# ---------------------------------------------------------------------------------
# ---------------------------------------------------------------------------------
# 22-------------------------------------------------------------------------------
# ---------------------------------------------------------------------------------
# Time = 445, intf.Hwrite = 0, intf.Hready = 1
# ---------------------------------------------------------------------------------
# ---------------------------------------------------------------------------------
# 33-------------------------------------------------------------------------------
# ---------------------------------------------------------------------------------
# Time = 455, intf.Hwrite = 0, intf.Hready = 1
# ---------------------------------------------------------------------------------
# ---------------------------------------------------------------------------------
# ---------------------------------------------------------------------------------
# ---------------------------------------------------------------------------------
# Time = 455, intf.Hwrite = 0, intf.Hready = 1
# ---------------------------------------------------------------------------------
# ---------------------------------------------------------------------------------
# ** Warning: (vsim-3829) Non-existent associative array entry. Returning default value.
#    Time: 465 ns  Iteration: 1  Process: /ahb5_top/tst/#FORK#24_f662582 File: ../sve/ahb5_slave_dummy_driver.sv Line: 55
# ---------------------------------------------------------------------------------
# ** Warning: (vsim-3829) Non-existent associative array entry. Returning default value.
#    Time: 465 ns  Iteration: 1  Process: /ahb5_top/tst/#FORK#24_f662582 File: ../sve/ahb5_slave_dummy_driver.sv Line: 58
# READ OPERATION INSIDE SLAVE DUMMY DRIVER TIme = 465 | intf.Hrdata = x | memory = x | memory without address = '{4161997671:10176833183707058160 } | At slave dummy Haddr = 0 | At slave dummy decimal Haddr = 0
# ---------------------------------------------------------------------------------
# Time = 465 | intf.Hrdata = x
# 11-------------------------------------------------------------------------------
# ---------------------------------------------------------------------------------
# Time = 465, intf.Hwrite = 0, intf.Hready = 1
# ---------------------------------------------------------------------------------
# ---------------------------------------------------------------------------------
# 22-------------------------------------------------------------------------------
# ---------------------------------------------------------------------------------
# Time = 475, intf.Hwrite = 0, intf.Hready = 1
# ---------------------------------------------------------------------------------
# ---------------------------------------------------------------------------------
# 33-------------------------------------------------------------------------------
# ---------------------------------------------------------------------------------
# Time = 485, intf.Hwrite = 0, intf.Hready = 1
# ---------------------------------------------------------------------------------
# ---------------------------------------------------------------------------------
# ---------------------------------------------------------------------------------
# ---------------------------------------------------------------------------------
# Time = 485, intf.Hwrite = 0, intf.Hready = 1
# ---------------------------------------------------------------------------------
# ---------------------------------------------------------------------------------
# ** Warning: (vsim-3829) Non-existent associative array entry. Returning default value.
#    Time: 495 ns  Iteration: 1  Process: /ahb5_top/tst/#FORK#24_f662582 File: ../sve/ahb5_slave_dummy_driver.sv Line: 55
# ---------------------------------------------------------------------------------
# ** Warning: (vsim-3829) Non-existent associative array entry. Returning default value.
#    Time: 495 ns  Iteration: 1  Process: /ahb5_top/tst/#FORK#24_f662582 File: ../sve/ahb5_slave_dummy_driver.sv Line: 58
# READ OPERATION INSIDE SLAVE DUMMY DRIVER TIme = 495 | intf.Hrdata = x | memory = x | memory without address = '{4161997671:10176833183707058160 } | At slave dummy Haddr = 0 | At slave dummy decimal Haddr = 0
# ---------------------------------------------------------------------------------
# Time = 495 | intf.Hrdata = x
# 11-------------------------------------------------------------------------------
# ---------------------------------------------------------------------------------
# Time = 495, intf.Hwrite = 0, intf.Hready = 1
# ---------------------------------------------------------------------------------
# ---------------------------------------------------------------------------------
# 22-------------------------------------------------------------------------------
# ---------------------------------------------------------------------------------
# Time = 505, intf.Hwrite = 0, intf.Hready = 1
# ---------------------------------------------------------------------------------
# ---------------------------------------------------------------------------------
# 33-------------------------------------------------------------------------------
# ---------------------------------------------------------------------------------
# Time = 515, intf.Hwrite = 0, intf.Hready = 1
# ---------------------------------------------------------------------------------
# ---------------------------------------------------------------------------------
# ---------------------------------------------------------------------------------
# ---------------------------------------------------------------------------------
# Time = 515, intf.Hwrite = 0, intf.Hready = 1
# ---------------------------------------------------------------------------------
# ---------------------------------------------------------------------------------
# ** Warning: (vsim-3829) Non-existent associative array entry. Returning default value.
#    Time: 525 ns  Iteration: 1  Process: /ahb5_top/tst/#FORK#24_f662582 File: ../sve/ahb5_slave_dummy_driver.sv Line: 55
# ---------------------------------------------------------------------------------
# ** Warning: (vsim-3829) Non-existent associative array entry. Returning default value.
#    Time: 525 ns  Iteration: 1  Process: /ahb5_top/tst/#FORK#24_f662582 File: ../sve/ahb5_slave_dummy_driver.sv Line: 58
# READ OPERATION INSIDE SLAVE DUMMY DRIVER TIme = 525 | intf.Hrdata = x | memory = x | memory without address = '{4161997671:10176833183707058160 } | At slave dummy Haddr = 0 | At slave dummy decimal Haddr = 0
# ---------------------------------------------------------------------------------
# Time = 525 | intf.Hrdata = x
# 11-------------------------------------------------------------------------------
# ---------------------------------------------------------------------------------
# Time = 525, intf.Hwrite = 0, intf.Hready = 1
# ---------------------------------------------------------------------------------
# ---------------------------------------------------------------------------------
# 22-------------------------------------------------------------------------------
# ---------------------------------------------------------------------------------
# Time = 535, intf.Hwrite = 0, intf.Hready = 1
# ---------------------------------------------------------------------------------
# ---------------------------------------------------------------------------------
# 33-------------------------------------------------------------------------------
# ---------------------------------------------------------------------------------
# Time = 545, intf.Hwrite = 0, intf.Hready = 1
# ---------------------------------------------------------------------------------
# ---------------------------------------------------------------------------------
# ---------------------------------------------------------------------------------
# ---------------------------------------------------------------------------------
# Time = 545, intf.Hwrite = 0, intf.Hready = 1
# ---------------------------------------------------------------------------------
# ---------------------------------------------------------------------------------
# ** Warning: (vsim-3829) Non-existent associative array entry. Returning default value.
#    Time: 555 ns  Iteration: 1  Process: /ahb5_top/tst/#FORK#24_f662582 File: ../sve/ahb5_slave_dummy_driver.sv Line: 55
# ---------------------------------------------------------------------------------
# ** Warning: (vsim-3829) Non-existent associative array entry. Returning default value.
#    Time: 555 ns  Iteration: 1  Process: /ahb5_top/tst/#FORK#24_f662582 File: ../sve/ahb5_slave_dummy_driver.sv Line: 58
# READ OPERATION INSIDE SLAVE DUMMY DRIVER TIme = 555 | intf.Hrdata = x | memory = x | memory without address = '{4161997671:10176833183707058160 } | At slave dummy Haddr = 0 | At slave dummy decimal Haddr = 0
# ---------------------------------------------------------------------------------
# Time = 555 | intf.Hrdata = x
# 11-------------------------------------------------------------------------------
# ---------------------------------------------------------------------------------
# Time = 555, intf.Hwrite = 0, intf.Hready = 1
# ---------------------------------------------------------------------------------
# ---------------------------------------------------------------------------------
# 22-------------------------------------------------------------------------------
# ---------------------------------------------------------------------------------
# Time = 565, intf.Hwrite = 0, intf.Hready = 1
# ---------------------------------------------------------------------------------
# ---------------------------------------------------------------------------------
# 33-------------------------------------------------------------------------------
# ---------------------------------------------------------------------------------
# Time = 575, intf.Hwrite = 0, intf.Hready = 1
# ---------------------------------------------------------------------------------
# ---------------------------------------------------------------------------------
# ---------------------------------------------------------------------------------
# ---------------------------------------------------------------------------------
# Time = 575, intf.Hwrite = 0, intf.Hready = 1
# ---------------------------------------------------------------------------------
# ---------------------------------------------------------------------------------
# ** Warning: (vsim-3829) Non-existent associative array entry. Returning default value.
#    Time: 585 ns  Iteration: 1  Process: /ahb5_top/tst/#FORK#24_f662582 File: ../sve/ahb5_slave_dummy_driver.sv Line: 55
# ---------------------------------------------------------------------------------
# ** Warning: (vsim-3829) Non-existent associative array entry. Returning default value.
#    Time: 585 ns  Iteration: 1  Process: /ahb5_top/tst/#FORK#24_f662582 File: ../sve/ahb5_slave_dummy_driver.sv Line: 58
# READ OPERATION INSIDE SLAVE DUMMY DRIVER TIme = 585 | intf.Hrdata = x | memory = x | memory without address = '{4161997671:10176833183707058160 } | At slave dummy Haddr = 0 | At slave dummy decimal Haddr = 0
# ---------------------------------------------------------------------------------
# Time = 585 | intf.Hrdata = x
# 11-------------------------------------------------------------------------------
# ---------------------------------------------------------------------------------
# Time = 585, intf.Hwrite = 0, intf.Hready = 1
# ---------------------------------------------------------------------------------
# ---------------------------------------------------------------------------------
# 22-------------------------------------------------------------------------------
# ---------------------------------------------------------------------------------
# Time = 595, intf.Hwrite = 0, intf.Hready = 1
# ---------------------------------------------------------------------------------
# ---------------------------------------------------------------------------------
# ** Note: $finish    : ../tb_top/ahb5_top.sv(21)
#    Time: 600 ns  Iteration: 0  Instance: /ahb5_top
# End time: 11:12:42 on May 03,2025, Elapsed time: 0:00:09
# Errors: 2, Warnings: 36
